Freq.	V(vout)
1.00000000000000e+00	(5.62749079311076e+01dB,-1.54843169929814e+00°)
1.00230523807790e+00	(5.62748929683557e+01dB,-1.55199939988301e+00°)
1.00461579027839e+00	(5.62748779365762e+01dB,-1.55557531255413e+00°)
1.00693166885180e+00	(5.62748628354656e+01dB,-1.55915945538901e+00°)
1.00925288607668e+00	(5.62748476647261e+01dB,-1.56275184955425e+00°)
1.01157945425990e+00	(5.62748324239859e+01dB,-1.56635251168999e+00°)
1.01391138573668e+00	(5.62748171129736e+01dB,-1.56996146152564e+00°)
1.01624869287070e+00	(5.62748017313285e+01dB,-1.57357871654904e+00°)
1.01859138805412e+00	(5.62747862787543e+01dB,-1.57720429962219e+00°)
1.02093948370768e+00	(5.62747707549023e+01dB,-1.58083822603474e+00°)
1.02329299228075e+00	(5.62747551594588e+01dB,-1.58448051645069e+00°)
1.02565192625141e+00	(5.62747394920718e+01dB,-1.58813118929288e+00°)
1.02801629812647e+00	(5.62747237524316e+01dB,-1.59179026531237e+00°)
1.03038612044162e+00	(5.62747079401909e+01dB,-1.59545776149615e+00°)
1.03276140576140e+00	(5.62746920550364e+01dB,-1.59913370020591e+00°)
1.03514216667934e+00	(5.62746760966109e+01dB,-1.60281810003941e+00°)
1.03752841581801e+00	(5.62746600645908e+01dB,-1.60651097735368e+00°)
1.03992016582906e+00	(5.62746439586154e+01dB,-1.61021235311925e+00°)
1.04231742939330e+00	(5.62746277783656e+01dB,-1.61392225063546e+00°)
1.04472021922080e+00	(5.62746115234919e+01dB,-1.61764068334564e+00°)
1.04712854805090e+00	(5.62745951936432e+01dB,-1.62136767463779e+00°)
1.04954242865232e+00	(5.62745787884955e+01dB,-1.62510324565964e+00°)
1.05196187382322e+00	(5.62745623076804e+01dB,-1.62884740998795e+00°)
1.05438689639126e+00	(5.62745457508563e+01dB,-1.63260019419062e+00°)
1.05681750921366e+00	(5.62745291176801e+01dB,-1.63636161269537e+00°)
1.05925372517729e+00	(5.62745124077783e+01dB,-1.64013168759033e+00°)
1.06169555719872e+00	(5.62744956208120e+01dB,-1.64391044024710e+00°)
1.06414301822431e+00	(5.62744787564403e+01dB,-1.64769788903604e+00°)
1.06659612123026e+00	(5.62744618142850e+01dB,-1.65149405237268e+00°)
1.06905487922266e+00	(5.62744447939948e+01dB,-1.65529895252559e+00°)
1.07151930523761e+00	(5.62744276952168e+01dB,-1.65911260876244e+00°)
1.07398941234124e+00	(5.62744105175678e+01dB,-1.66293504039645e+00°)
1.07646521362983e+00	(5.62743932607062e+01dB,-1.66676626830935e+00°)
1.07894672222983e+00	(5.62743759242704e+01dB,-1.67060631419022e+00°)
1.08143395129794e+00	(5.62743585078648e+01dB,-1.67445519520444e+00°)
1.08392691402120e+00	(5.62743410111535e+01dB,-1.67831293389425e+00°)
1.08642562361706e+00	(5.62743234337413e+01dB,-1.68217954980151e+00°)
1.08893009333343e+00	(5.62743057752671e+01dB,-1.68605506251418e+00°)
1.09144033644876e+00	(5.62742880353645e+01dB,-1.68993949471260e+00°)
1.09395636627209e+00	(5.62742702136406e+01dB,-1.69383286226938e+00°)
1.09647819614318e+00	(5.62742523097506e+01dB,-1.69773519176523e+00°)
1.09900583943252e+00	(5.62742343232689e+01dB,-1.70164649992715e+00°)
1.10153930954141e+00	(5.62742162538513e+01dB,-1.70556680809792e+00°)
1.10407861990207e+00	(5.62741981011084e+01dB,-1.70949613690557e+00°)
1.10662378397766e+00	(5.62741798646455e+01dB,-1.71343450626324e+00°)
1.10917481526240e+00	(5.62741615440985e+01dB,-1.71738193841563e+00°)
1.11173172728159e+00	(5.62741431390546e+01dB,-1.72133845413133e+00°)
1.11429453359173e+00	(5.62741246491355e+01dB,-1.72530407270283e+00°)
1.11686324778056e+00	(5.62741060739464e+01dB,-1.72927881575451e+00°)
1.11943788346715e+00	(5.62740874130946e+01dB,-1.73326270419646e+00°)
1.12201845430196e+00	(5.62740686661964e+01dB,-1.73725575898614e+00°)
1.12460497396692e+00	(5.62740498328550e+01dB,-1.74125800265161e+00°)
1.12719745617551e+00	(5.62740309126578e+01dB,-1.74526945319920e+00°)
1.12979591467280e+00	(5.62740119052192e+01dB,-1.74929013401382e+00°)
1.13240036323556e+00	(5.62739928101120e+01dB,-1.75332006395881e+00°)
1.13501081567231e+00	(5.62739736269576e+01dB,-1.75735926727633e+00°)
1.13762728582343e+00	(5.62739543553540e+01dB,-1.76140776444879e+00°)
1.14024978756117e+00	(5.62739349948648e+01dB,-1.76546557448352e+00°)
1.14287833478977e+00	(5.62739155451201e+01dB,-1.76953272176705e+00°)
1.14551294144553e+00	(5.62738960056693e+01dB,-1.77360922616483e+00°)
1.14815362149688e+00	(5.62738763761206e+01dB,-1.77769510759077e+00°)
1.15080038894443e+00	(5.62738566560697e+01dB,-1.78179039209973e+00°)
1.15345325782109e+00	(5.62738368450711e+01dB,-1.78589509589503e+00°)
1.15611224219210e+00	(5.62738169427236e+01dB,-1.79000924436733e+00°)
1.15877735615512e+00	(5.62737969486029e+01dB,-1.79413285686376e+00°)
1.16144861384034e+00	(5.62737768622898e+01dB,-1.79826595582658e+00°)
1.16412602941049e+00	(5.62737566833418e+01dB,-1.80240856374716e+00°)
1.16680961706096e+00	(5.62737364113607e+01dB,-1.80656070240445e+00°)
1.16949939101987e+00	(5.62737160459038e+01dB,-1.81072239286512e+00°)
1.17219536554813e+00	(5.62736955865369e+01dB,-1.81489365624523e+00°)
1.17489755493953e+00	(5.62736750328271e+01dB,-1.81907451523344e+00°)
1.17760597352080e+00	(5.62736543843474e+01dB,-1.82326499332957e+00°)
1.18032063565173e+00	(5.62736336406611e+01dB,-1.82746511027538e+00°)
1.18304155572516e+00	(5.62736128013298e+01dB,-1.83167488967019e+00°)
1.18576874816716e+00	(5.62735918658945e+01dB,-1.83589435211703e+00°)
1.18850222743702e+00	(5.62735708339347e+01dB,-1.84012352131521e+00°)
1.19124200802737e+00	(5.62735497050056e+01dB,-1.84436241949102e+00°)
1.19398810446427e+00	(5.62735284786387e+01dB,-1.84861106815948e+00°)
1.19674053130724e+00	(5.62735071544110e+01dB,-1.85286948888596e+00°)
1.19949930314938e+00	(5.62734857318495e+01dB,-1.85713770557094e+00°)
1.20226443461741e+00	(5.62734642105233e+01dB,-1.86141574064242e+00°)
1.20503594037179e+00	(5.62734425899666e+01dB,-1.86570361581745e+00°)
1.20781383510678e+00	(5.62734208697078e+01dB,-1.87000135362551e+00°)
1.21059813355048e+00	(5.62733990493204e+01dB,-1.87430897740847e+00°)
1.21338885046497e+00	(5.62733771283107e+01dB,-1.87862650903614e+00°)
1.21618600064636e+00	(5.62733551062441e+01dB,-1.88295397195260e+00°)
1.21898959892486e+00	(5.62733329826261e+01dB,-1.88729138736840e+00°)
1.22179966016487e+00	(5.62733107570147e+01dB,-1.89163878035335e+00°)
1.22461619926504e+00	(5.62732884289289e+01dB,-1.89599617069769e+00°)
1.22743923115840e+00	(5.62732659978863e+01dB,-1.90036358433579e+00°)
1.23026877081238e+00	(5.62732434634377e+01dB,-1.90474104344584e+00°)
1.23310483322890e+00	(5.62732208250854e+01dB,-1.90912857101946e+00°)
1.23594743344451e+00	(5.62731980823580e+01dB,-1.91352618781540e+00°)
1.23879658653036e+00	(5.62731752347786e+01dB,-1.91793391845229e+00°)
1.24165230759241e+00	(5.62731522818498e+01dB,-1.92235178912398e+00°)
1.24451461177138e+00	(5.62731292231044e+01dB,-1.92677981846100e+00°)
1.24738351424294e+00	(5.62731060580553e+01dB,-1.93121803123868e+00°)
1.25025903021771e+00	(5.62730827861947e+01dB,-1.93566645152324e+00°)
1.25314117494141e+00	(5.62730594070382e+01dB,-1.94012510267195e+00°)
1.25602996369487e+00	(5.62730359201095e+01dB,-1.94459400809478e+00°)
1.25892541179416e+00	(5.62730123248944e+01dB,-1.94907319049291e+00°)
1.26182753459066e+00	(5.62729886208870e+01dB,-1.95356267185895e+00°)
1.26473634747115e+00	(5.62729648076045e+01dB,-1.95806248033093e+00°)
1.26765186585784e+00	(5.62729408845365e+01dB,-1.96257263572296e+00°)
1.27057410520854e+00	(5.62729168511807e+01dB,-1.96709316247169e+00°)
1.27350308101666e+00	(5.62728927070188e+01dB,-1.97162408506720e+00°)
1.27643880881134e+00	(5.62728684515514e+01dB,-1.97616542652995e+00°)
1.27938130415752e+00	(5.62728440842622e+01dB,-1.98071721145710e+00°)
1.28233058265602e+00	(5.62728196046292e+01dB,-1.98527946373797e+00°)
1.28528665994361e+00	(5.62727950121532e+01dB,-1.98985220731572e+00°)
1.28824955169313e+00	(5.62727703063037e+01dB,-1.99443546542594e+00°)
1.29121927361353e+00	(5.62727454865587e+01dB,-1.99902926288134e+00°)
1.29419584144998e+00	(5.62727205523795e+01dB,-2.00363362150267e+00°)
1.29717927098395e+00	(5.62726955032716e+01dB,-2.00824857001892e+00°)
1.30016957803328e+00	(5.62726703386840e+01dB,-2.01287412883642e+00°)
1.30316677845229e+00	(5.62726450580817e+01dB,-2.01751032374690e+00°)
1.30617088813183e+00	(5.62726196609449e+01dB,-2.02215717831207e+00°)
1.30918192299940e+00	(5.62725941467189e+01dB,-2.02681471767158e+00°)
1.31219989901920e+00	(5.62725685148902e+01dB,-2.03148296701989e+00°)
1.31522483219223e+00	(5.62725427648915e+01dB,-2.03616194703716e+00°)
1.31825673855640e+00	(5.62725168961975e+01dB,-2.04085168759736e+00°)
1.32129563418657e+00	(5.62724909082469e+01dB,-2.04555220949098e+00°)
1.32434153519466e+00	(5.62724648005054e+01dB,-2.05026353889484e+00°)
1.32739445772973e+00	(5.62724385724139e+01dB,-2.05498570051803e+00°)
1.33045441797808e+00	(5.62724122234113e+01dB,-2.05971871836372e+00°)
1.33352143216332e+00	(5.62723857529376e+01dB,-2.06446261801391e+00°)
1.33659551654643e+00	(5.62723591604623e+01dB,-2.06921742434489e+00°)
1.33967668742593e+00	(5.62723324454092e+01dB,-2.07398316305042e+00°)
1.34276496113786e+00	(5.62723056072033e+01dB,-2.07875985683413e+00°)
1.34586035405594e+00	(5.62722786452742e+01dB,-2.08354753150204e+00°)
1.34896288259164e+00	(5.62722515590847e+01dB,-2.08834621367806e+00°)
1.35207256319427e+00	(5.62722243480303e+01dB,-2.09315592699631e+00°)
1.35518941235103e+00	(5.62721970115472e+01dB,-2.09797669743208e+00°)
1.35831344658715e+00	(5.62721695490469e+01dB,-2.10280854949428e+00°)
1.36144468246594e+00	(5.62721419599823e+01dB,-2.10765151003325e+00°)
1.36458313658892e+00	(5.62721142437415e+01dB,-2.11250560367158e+00°)
1.36772882559584e+00	(5.62720863997320e+01dB,-2.11737085432730e+00°)
1.37088176616484e+00	(5.62720584273912e+01dB,-2.12224729054499e+00°)
1.37404197501251e+00	(5.62720303261173e+01dB,-2.12713493559557e+00°)
1.37720946889394e+00	(5.62720020953206e+01dB,-2.13203381585360e+00°)
1.38038426460288e+00	(5.62719737344012e+01dB,-2.13694395622804e+00°)
1.38356637897177e+00	(5.62719452427531e+01dB,-2.14186538320860e+00°)
1.38675582887188e+00	(5.62719166197890e+01dB,-2.14679812334275e+00°)
1.38995263121334e+00	(5.62718878648866e+01dB,-2.15174220018962e+00°)
1.39315680294529e+00	(5.62718589774600e+01dB,-2.15669764193572e+00°)
1.39636836105593e+00	(5.62718299568851e+01dB,-2.16166447301787e+00°)
1.39958732257261e+00	(5.62718008025527e+01dB,-2.16664272097738e+00°)
1.40281370456195e+00	(5.62717715138433e+01dB,-2.17163241036773e+00°)
1.40604752412990e+00	(5.62717420901462e+01dB,-2.17663356808552e+00°)
1.40928879842186e+00	(5.62717125308397e+01dB,-2.18164622032447e+00°)
1.41253754462274e+00	(5.62716828352891e+01dB,-2.18667039257548e+00°)
1.41579377995707e+00	(5.62716530028781e+01dB,-2.19170611267299e+00°)
1.41905752168908e+00	(5.62716230329807e+01dB,-2.19675340698730e+00°)
1.42232878712281e+00	(5.62715929249459e+01dB,-2.20181230042478e+00°)
1.42560759360218e+00	(5.62715626781526e+01dB,-2.20688281947407e+00°)
1.42889395851109e+00	(5.62715322919585e+01dB,-2.21196499144483e+00°)
1.43218789927353e+00	(5.62715017657260e+01dB,-2.21705884370614e+00°)
1.43548943335364e+00	(5.62714710988069e+01dB,-2.22216440292522e+00°)
1.43879857825583e+00	(5.62714402905393e+01dB,-2.22728169202117e+00°)
1.44211535152486e+00	(5.62714093402983e+01dB,-2.23241074387327e+00°)
1.44543977074592e+00	(5.62713782474269e+01dB,-2.23755158075900e+00°)
1.44877185354475e+00	(5.62713470112504e+01dB,-2.24270423186996e+00°)
1.45211161758773e+00	(5.62713156311172e+01dB,-2.24786872188861e+00°)
1.45545908058195e+00	(5.62712841063789e+01dB,-2.25304508088878e+00°)
1.45881426027534e+00	(5.62712524363595e+01dB,-2.25823333519700e+00°)
1.46217717445671e+00	(5.62712206203834e+01dB,-2.26343350891567e+00°)
1.46554784095590e+00	(5.62711886577863e+01dB,-2.26864563230052e+00°)
1.46892627764385e+00	(5.62711565478970e+01dB,-2.27386973338349e+00°)
1.47231250243271e+00	(5.62711242900415e+01dB,-2.27910583644966e+00°)
1.47570653327588e+00	(5.62710918835210e+01dB,-2.28435397117623e+00°)
1.47910838816819e+00	(5.62710593276622e+01dB,-2.28961416501698e+00°)
1.48251808514594e+00	(5.62710266217857e+01dB,-2.29488644320240e+00°)
1.48593564228699e+00	(5.62709937651864e+01dB,-2.30017083559391e+00°)
1.48936107771090e+00	(5.62709607571856e+01dB,-2.30546736906827e+00°)
1.49279440957898e+00	(5.62709275970757e+01dB,-2.31077607132567e+00°)
1.49623565609442e+00	(5.62708942841608e+01dB,-2.31609697088972e+00°)
1.49968483550236e+00	(5.62708608177342e+01dB,-2.32143009406139e+00°)
1.50314196609001e+00	(5.62708271970970e+01dB,-2.32677547025013e+00°)
1.50660706618673e+00	(5.62707934215396e+01dB,-2.33213312626216e+00°)
1.51008015416413e+00	(5.62707594903424e+01dB,-2.33750309125086e+00°)
1.51356124843619e+00	(5.62707254027928e+01dB,-2.34288539252824e+00°)
1.51705036745932e+00	(5.62706911581682e+01dB,-2.34828005670747e+00°)
1.52054752973248e+00	(5.62706567557567e+01dB,-2.35368711617625e+00°)
1.52405275379728e+00	(5.62706221948183e+01dB,-2.35910659500805e+00°)
1.52756605823806e+00	(5.62705874746379e+01dB,-2.36453852419347e+00°)
1.53108746168202e+00	(5.62705525944724e+01dB,-2.36998293135938e+00°)
1.53461698279928e+00	(5.62705175535877e+01dB,-2.37543984343429e+00°)
1.53815464030302e+00	(5.62704823512519e+01dB,-2.38090929159893e+00°)
1.54170045294954e+00	(5.62704469867115e+01dB,-2.38639130176664e+00°)
1.54525443953840e+00	(5.62704114592257e+01dB,-2.39188590486463e+00°)
1.54881661891247e+00	(5.62703757680471e+01dB,-2.39739312807627e+00°)
1.55238700995807e+00	(5.62703399124208e+01dB,-2.40291300131431e+00°)
1.55596563160506e+00	(5.62703038915871e+01dB,-2.40844555265176e+00°)
1.55955250282694e+00	(5.62702677048024e+01dB,-2.41399081212989e+00°)
1.56314764264094e+00	(5.62702313512762e+01dB,-2.41954880642723e+00°)
1.56675107010813e+00	(5.62701948302617e+01dB,-2.42511956647552e+00°)
1.57036280433354e+00	(5.62701581409832e+01dB,-2.43070312060568e+00°)
1.57398286446620e+00	(5.62701212826685e+01dB,-2.43629949911742e+00°)
1.57761126969933e+00	(5.62700842545370e+01dB,-2.44190872932897e+00°)
1.58124803927037e+00	(5.62700470558093e+01dB,-2.44753084243163e+00°)
1.58489319246110e+00	(5.62700096856974e+01dB,-2.45316586511243e+00°)
1.58854674859776e+00	(5.62699721434241e+01dB,-2.45881383097787e+00°)
1.59220872705115e+00	(5.62699344281865e+01dB,-2.46447476608423e+00°)
1.59587914723672e+00	(5.62698965391897e+01dB,-2.47014870036132e+00°)
1.59955802861465e+00	(5.62698584756437e+01dB,-2.47583566570847e+00°)
1.60324539069002e+00	(5.62698202367367e+01dB,-2.48153568990244e+00°)
1.60694125301286e+00	(5.62697818216677e+01dB,-2.48724880154751e+00°)
1.61064563517825e+00	(5.62697432296252e+01dB,-2.49297503312193e+00°)
1.61435855682647e+00	(5.62697044597970e+01dB,-2.49871441298164e+00°)
1.61808003764305e+00	(5.62696655113641e+01dB,-2.50446697221452e+00°)
1.62181009735891e+00	(5.62696263834996e+01dB,-2.51023273854791e+00°)
1.62554875575047e+00	(5.62695870753861e+01dB,-2.51601174434528e+00°)
1.62929603263970e+00	(5.62695475861984e+01dB,-2.52180401937151e+00°)
1.63305194789432e+00	(5.62695079150892e+01dB,-2.52760959269678e+00°)
1.63681652142779e+00	(5.62694680612372e+01dB,-2.53342849574314e+00°)
1.64058977319952e+00	(5.62694280237965e+01dB,-2.53926075847680e+00°)
1.64437172321491e+00	(5.62693878019249e+01dB,-2.54510641207355e+00°)
1.64816239152549e+00	(5.62693473947727e+01dB,-2.55096548473070e+00°)
1.65196179822900e+00	(5.62693068014827e+01dB,-2.55683800966317e+00°)
1.65576996346951e+00	(5.62692660212104e+01dB,-2.56272401672672e+00°)
1.65958690743754e+00	(5.62692250530904e+01dB,-2.56862353546423e+00°)
1.66341265037015e+00	(5.62691838962575e+01dB,-2.57453659815221e+00°)
1.66724721255104e+00	(5.62691425498464e+01dB,-2.58046323446986e+00°)
1.67109061431069e+00	(5.62691010129834e+01dB,-2.58640347530710e+00°)
1.67494287602642e+00	(5.62690592847987e+01dB,-2.59235735352616e+00°)
1.67880401812254e+00	(5.62690173644039e+01dB,-2.59832489672713e+00°)
1.68267406107045e+00	(5.62689752509245e+01dB,-2.60430613943280e+00°)
1.68655302538872e+00	(5.62689329434695e+01dB,-2.61030111128474e+00°)
1.69044093164324e+00	(5.62688904411452e+01dB,-2.61630984351678e+00°)
1.69433780044731e+00	(5.62688477430600e+01dB,-2.62233236743186e+00°)
1.69824365246172e+00	(5.62688048483122e+01dB,-2.62836871440220e+00°)
1.70215850839493e+00	(5.62687617559980e+01dB,-2.63441891625042e+00°)
1.70608238900310e+00	(5.62687184652111e+01dB,-2.64048300448786e+00°)
1.71001531509027e+00	(5.62686749750377e+01dB,-2.64656101031491e+00°)
1.71395730750840e+00	(5.62686312845576e+01dB,-2.65265296462097e+00°)
1.71790838715757e+00	(5.62685873928561e+01dB,-2.65875890179258e+00°)
1.72186857498599e+00	(5.62685432990028e+01dB,-2.66487885057476e+00°)
1.72583789199018e+00	(5.62684990020831e+01dB,-2.67101284511372e+00°)
1.72981635921508e+00	(5.62684545011426e+01dB,-2.67716091581835e+00°)
1.73380399775412e+00	(5.62684097952524e+01dB,-2.68332309545284e+00°)
1.73780082874935e+00	(5.62683648834799e+01dB,-2.68949941609052e+00°)
1.74180687339159e+00	(5.62683197648720e+01dB,-2.69568990949489e+00°)
1.74582215292048e+00	(5.62682744384764e+01dB,-2.70189460788119e+00°)
1.74984668862464e+00	(5.62682289033398e+01dB,-2.70811354391667e+00°)
1.75388050184174e+00	(5.62681831585055e+01dB,-2.71434675033985e+00°)
1.75792361395867e+00	(5.62681372030077e+01dB,-2.72059425957997e+00°)
1.76197604641161e+00	(5.62680910358755e+01dB,-2.72685610185310e+00°)
1.76603782068614e+00	(5.62680446561394e+01dB,-2.73313231239737e+00°)
1.77010895831740e+00	(5.62679980628251e+01dB,-2.73942292347633e+00°)
1.77418948089014e+00	(5.62679512549491e+01dB,-2.74572796666420e+00°)
1.77827941003890e+00	(5.62679042315260e+01dB,-2.75204747589192e+00°)
1.78237876744807e+00	(5.62678569915635e+01dB,-2.75838148325893e+00°)
1.78648757485203e+00	(5.62678095340727e+01dB,-2.76473002284097e+00°)
1.79060585403527e+00	(5.62677618580447e+01dB,-2.77109312535944e+00°)
1.79473362683250e+00	(5.62677139624831e+01dB,-2.77747082579702e+00°)
1.79887091512876e+00	(5.62676658463831e+01dB,-2.78386315806695e+00°)
1.80301774085955e+00	(5.62676175087244e+01dB,-2.79027015387084e+00°)
1.80717412601090e+00	(5.62675689484875e+01dB,-2.79669184612584e+00°)
1.81134009261958e+00	(5.62675201646554e+01dB,-2.80312826934551e+00°)
1.81551566277311e+00	(5.62674711562009e+01dB,-2.80957945697466e+00°)
1.81970085860996e+00	(5.62674219220837e+01dB,-2.81604544138921e+00°)
1.82389570231961e+00	(5.62673724612850e+01dB,-2.82252625808523e+00°)
1.82810021614272e+00	(5.62673227727421e+01dB,-2.82902193806329e+00°)
1.83231442237119e+00	(5.62672728554272e+01dB,-2.83553251734815e+00°)
1.83653834334832e+00	(5.62672227082804e+01dB,-2.84205802975414e+00°)
1.84077200146893e+00	(5.62671723302464e+01dB,-2.84859850764678e+00°)
1.84501541917945e+00	(5.62671217202700e+01dB,-2.85515398575085e+00°)
1.84926861897805e+00	(5.62670708772808e+01dB,-2.86172449848488e+00°)
1.85353162341479e+00	(5.62670198002107e+01dB,-2.86831008034224e+00°)
1.85780445509167e+00	(5.62669684879843e+01dB,-2.87491076360667e+00°)
1.86208713666284e+00	(5.62669169395222e+01dB,-2.88152658444460e+00°)
1.86637969083464e+00	(5.62668651537358e+01dB,-2.88815757643243e+00°)
1.87068214036577e+00	(5.62668131295444e+01dB,-2.89480377436417e+00°)
1.87499450806739e+00	(5.62667608658443e+01dB,-2.90146521158628e+00°)
1.87931681680324e+00	(5.62667083615432e+01dB,-2.90814192494787e+00°)
1.88364908948977e+00	(5.62666556155341e+01dB,-2.91483394718542e+00°)
1.88799134909627e+00	(5.62666026266967e+01dB,-2.92154131339595e+00°)
1.89234361864495e+00	(5.62665493939307e+01dB,-2.92826405799110e+00°)
1.89670592121112e+00	(5.62664959161124e+01dB,-2.93500221698185e+00°)
1.90107827992327e+00	(5.62664421921130e+01dB,-2.94175582455185e+00°)
1.90546071796322e+00	(5.62663882208041e+01dB,-2.94852491610344e+00°)
1.90985325856621e+00	(5.62663340010509e+01dB,-2.95530952635433e+00°)
1.91425592502106e+00	(5.62662795317103e+01dB,-2.96210969086055e+00°)
1.91866874067026e+00	(5.62662248116423e+01dB,-2.96892544525511e+00°)
1.92309172891013e+00	(5.62661698396871e+01dB,-2.97575682296368e+00°)
1.92752491319091e+00	(5.62661146146992e+01dB,-2.98260386129688e+00°)
1.93196831701690e+00	(5.62660591355096e+01dB,-2.98946659650052e+00°)
1.93642196394658e+00	(5.62660034009571e+01dB,-2.99634506223265e+00°)
1.94088587759275e+00	(5.62659474098589e+01dB,-3.00323929413281e+00°)
