Freq.	V(vout)
1.00000000000000e+02	(-2.08756101418704e+01dB,-1.35874810080366e+02°)
1.02329299228075e+02	(-2.11817071755867e+01dB,-1.36550692417451e+02°)
1.04712854805090e+02	(-2.14901206916175e+01dB,-1.37225164240551e+02°)
1.07151930523761e+02	(-2.18008412284031e+01dB,-1.37897880206946e+02°)
1.09647819614318e+02	(-2.21138568835043e+01dB,-1.38568498995827e+02°)
1.12201845430196e+02	(-2.24291533664178e+01dB,-1.39236684219748e+02°)
1.14815362149688e+02	(-2.27467140611041e+01dB,-1.39902105301862e+02°)
1.17489755493953e+02	(-2.30665200976402e+01dB,-1.40564438313658e+02°)
1.20226443461741e+02	(-2.33885504323503e+01dB,-1.41223366768575e+02°)
1.23026877081238e+02	(-2.37127819356914e+01dB,-1.41878582367223e+02°)
1.25892541179417e+02	(-2.40391894871462e+01dB,-1.42529785690658e+02°)
1.28824955169313e+02	(-2.43677460763028e+01dB,-1.43176686838659e+02°)
1.31825673855641e+02	(-2.46984229092995e+01dB,-1.43819006010376e+02°)
1.34896288259165e+02	(-2.50311895197857e+01dB,-1.44456474025813e+02°)
1.38038426460288e+02	(-2.53660138835377e+01dB,-1.45088832786667e+02°)
1.41253754462275e+02	(-2.57028625358828e+01dB,-1.45715835675857e+02°)
1.44543977074593e+02	(-2.60417006910914e+01dB,-1.46337247895785e+02°)
1.47910838816821e+02	(-2.63824923629255e+01dB,-1.46952846745711e+02°)
1.51356124843621e+02	(-2.67252004855477e+01dB,-1.47562421839029e+02°)
1.54881661891248e+02	(-2.70697870340603e+01dB,-1.48165775262065e+02°)
1.58489319246111e+02	(-2.74162131439548e+01dB,-1.48762721676095e+02°)
1.62181009735893e+02	(-2.77644392288279e+01dB,-1.49353088364711e+02°)
1.65958690743756e+02	(-2.81144250957565e+01dB,-1.49936715229186e+02°)
1.69824365246174e+02	(-2.84661300577885e+01dB,-1.50513454734422e+02°)
1.73780082874937e+02	(-2.88195130430576e+01dB,-1.51083171808787e+02°)
1.77827941003892e+02	(-2.91745327000985e+01dB,-1.51645743700595e+02°)
1.81970085860998e+02	(-2.95311474989820e+01dB,-1.52201059794943e+02°)
1.86208713666287e+02	(-2.98893158279654e+01dB,-1.52749021394039e+02°)
1.90546071796324e+02	(-3.02489960853976e+01dB,-1.53289541464515e+02°)
1.94984459975804e+02	(-3.06101467666753e+01dB,-1.53822544355250e+02°)
1.99526231496888e+02	(-3.09727265461106e+01dB,-1.54347965488988e+02°)
2.04173794466953e+02	(-3.13366943535932e+01dB,-1.54865751031152e+02°)
2.08929613085404e+02	(-3.17020094460066e+01dB,-1.55375857539143e+02°)
2.13796208950223e+02	(-3.20686314733825e+01dB,-1.55878251595225e+02°)
2.18776162394955e+02	(-3.24365205398161e+01dB,-1.56372909425953e+02°)
2.23872113856834e+02	(-3.28056372592076e+01dB,-1.56859816511186e+02°)
2.29086765276777e+02	(-3.31759428059195e+01dB,-1.57338967185203e+02°)
2.34422881531992e+02	(-3.35473989604758e+01dB,-1.57810364232507e+02°)
2.39883291901949e+02	(-3.39199681504366e+01dB,-1.58274018480789e+02°)
2.45470891568503e+02	(-3.42936134866208e+01dB,-1.58729948392984e+02°)
2.51188643150958e+02	(-3.46682987948507e+01dB,-1.59178179660673e+02°)
2.57039578276886e+02	(-3.50439886434160e+01dB,-1.59618744800454e+02°)
2.63026799189538e+02	(-3.54206483664570e+01dB,-1.60051682754986e+02°)
2.69153480392691e+02	(-3.57982440834843e+01dB,-1.60477038500134e+02°)
2.75422870333816e+02	(-3.61767427152437e+01dB,-1.60894862659524e+02°)
2.81838293126445e+02	(-3.65561119961566e+01dB,-1.61305211127662e+02°)
2.88403150312660e+02	(-3.69363204835412e+01dB,-1.61708144702456e+02°)
2.95120922666638e+02	(-3.73173375638488e+01dB,-1.62103728728129e+02°)
3.01995172040201e+02	(-3.76991334561196e+01dB,-1.62492032749087e+02°)
3.09029543251358e+02	(-3.80816792128793e+01dB,-1.62873130175357e+02°)
3.16227766016837e+02	(-3.84649467186746e+01dB,-1.63247097960059e+02°)
3.23593656929628e+02	(-3.88489086864553e+01dB,-1.63614016289128e+02°)
3.31131121482590e+02	(-3.92335386519919e+01dB,-1.63973968283679e+02°)
3.38844156139202e+02	(-3.96188109665182e+01dB,-1.64327039715017e+02°)
3.46736850452531e+02	(-4.00047007877724e+01dB,-1.64673318732428e+02°)
3.54813389233575e+02	(-4.03911840696092e+01dB,-1.65012895603693e+02°)
3.63078054770101e+02	(-4.07782375503388e+01dB,-1.65345862468306e+02°)
3.71535229097172e+02	(-4.11658387399499e+01dB,-1.65672313103173e+02°)
3.80189396320560e+02	(-4.15539659063516e+01dB,-1.65992342700677e+02°)
3.89045144994280e+02	(-4.19425980607736e+01dB,-1.66306047658855e+02°)
3.98107170553496e+02	(-4.23317149424446e+01dB,-1.66613525383397e+02°)
4.07380277804112e+02	(-4.27212970026686e+01dB,-1.66914874101203e+02°)
4.16869383470335e+02	(-4.31113253883991e+01dB,-1.67210192685154e+02°)
4.26579518801592e+02	(-4.35017819254225e+01dB,-1.67499580489747e+02°)
4.36515832240165e+02	(-4.38926491012234e+01dB,-1.67783137197256e+02°)
4.46683592150962e+02	(-4.42839100476398e+01dB,-1.68060962674016e+02°)
4.57088189614874e+02	(-4.46755485233557e+01dB,-1.68333156836466e+02°)
4.67735141287197e+02	(-4.50675488963305e+01dB,-1.68599819526550e+02°)
4.78630092322637e+02	(-4.54598961262013e+01dB,-1.68861050396109e+02°)
4.89778819368445e+02	(-4.58525757467321e+01dB,-1.69116948799812e+02°)
5.01187233627271e+02	(-4.62455738483574e+01dB,-1.69367613696347e+02°)
5.12861383991364e+02	(-4.66388770608588e+01dB,-1.69613143557332e+02°)
5.24807460249771e+02	(-4.70324725362250e+01dB,-1.69853636283760e+02°)
5.37031796370251e+02	(-4.74263479317234e+01dB,-1.70089189129387e+02°)
5.49540873857623e+02	(-4.78204913932182e+01dB,-1.70319898630903e+02°)
5.62341325190348e+02	(-4.82148915387627e+01dB,-1.70545860544387e+02°)
5.75439937337155e+02	(-4.86095374424860e+01dB,-1.70767169787778e+02°)
5.88843655355587e+02	(-4.90044186187983e+01dB,-1.70983920388991e+02°)
6.02559586074356e+02	(-4.93995250069314e+01dB,-1.71196205439406e+02°)
6.16595001861481e+02	(-4.97948469558218e+01dB,-1.71404117052317e+02°)
6.30957344480192e+02	(-5.01903752093570e+01dB,-1.71607746326182e+02°)
6.45654229034654e+02	(-5.05861008919905e+01dB,-1.71807183312260e+02°)
6.60693448007594e+02	(-5.09820154947274e+01dB,-1.72002516986451e+02°)
6.76082975391980e+02	(-5.13781108614932e+01dB,-1.72193835225023e+02°)
6.91830970918935e+02	(-5.17743791758824e+01dB,-1.72381224783971e+02°)
7.07945784384136e+02	(-5.21708129482935e+01dB,-1.72564771281853e+02°)
7.24435960074988e+02	(-5.25674050034456e+01dB,-1.72744559185735e+02°)
7.41310241300916e+02	(-5.29641484682765e+01dB,-1.72920671800170e+02°)
7.58577575029182e+02	(-5.33610367602243e+01dB,-1.73093191258913e+02°)
7.76247116628690e+02	(-5.37580635758808e+01dB,-1.73262198519202e+02°)
7.94328234724279e+02	(-5.41552228800197e+01dB,-1.73427773358451e+02°)
8.12830516164097e+02	(-5.45525088949910e+01dB,-1.73589994373141e+02°)
8.31763771102669e+02	(-5.49499160904741e+01dB,-1.73748938979752e+02°)
8.51138038202374e+02	(-5.53474391735911e+01dB,-1.73904683417626e+02°)
8.70963589956078e+02	(-5.57450730793587e+01dB,-1.74057302753532e+02°)
8.91250938133743e+02	(-5.61428129614902e+01dB,-1.74206870887880e+02°)
9.12010839355907e+02	(-5.65406541835224e+01dB,-1.74353460562404e+02°)
9.33254300796988e+02	(-5.69385923102742e+01dB,-1.74497143369210e+02°)
9.54992586021433e+02	(-5.73366230996148e+01dB,-1.74637989761070e+02°)
9.77237220955808e+02	(-5.77347424945485e+01dB,-1.74776069062866e+02°)
9.99999999999997e+02	(-5.81329466155933e+01dB,-1.74911449484074e+02°)
1.02329299228075e+03	(-5.85312317534546e+01dB,-1.75044198132189e+02°)
1.04712854805090e+03	(-5.89295943619842e+01dB,-1.75174381027039e+02°)
1.07151930523760e+03	(-5.93280310514090e+01dB,-1.75302063115850e+02°)
1.09647819614318e+03	(-5.97265385818331e+01dB,-1.75427308289040e+02°)
1.12201845430196e+03	(-6.01251138569948e+01dB,-1.75550179396648e+02°)
1.14815362149688e+03	(-6.05237539182722e+01dB,-1.75670738265324e+02°)
1.17489755493953e+03	(-6.09224559389381e+01dB,-1.75789045715835e+02°)
1.20226443461741e+03	(-6.13212172186422e+01dB,-1.75905161581037e+02°)
1.23026877081238e+03	(-6.17200351781216e+01dB,-1.76019144724230e+02°)
1.25892541179416e+03	(-6.21189073541339e+01dB,-1.76131053057889e+02°)
1.28824955169313e+03	(-6.25178313945975e+01dB,-1.76240943562686e+02°)
1.31825673855640e+03	(-6.29168050539362e+01dB,-1.76348872306793e+02°)
1.34896288259165e+03	(-6.33158261886260e+01dB,-1.76454894465422e+02°)
1.38038426460288e+03	(-6.37148927529235e+01dB,-1.76559064340544e+02°)
1.41253754462275e+03	(-6.41140027947847e+01dB,-1.76661435380795e+02°)
1.44543977074592e+03	(-6.45131544519565e+01dB,-1.76762060201501e+02°)
1.47910838816820e+03	(-6.49123459482414e+01dB,-1.76860990604834e+02°)
1.51356124843620e+03	(-6.53115755899217e+01dB,-1.76958277600022e+02°)
1.54881661891248e+03	(-6.57108417623473e+01dB,-1.77053971423672e+02°)
1.58489319246111e+03	(-6.61101429266732e+01dB,-1.77148121560092e+02°)
1.62181009735892e+03	(-6.65094776167417e+01dB,-1.77240776761667e+02°)
1.65958690743755e+03	(-6.69088444361100e+01dB,-1.77331985069239e+02°)
1.69824365246174e+03	(-6.73082420552128e+01dB,-1.77421793832496e+02°)
1.73780082874937e+03	(-6.77076692086532e+01dB,-1.77510249730328e+02°)
1.77827941003892e+03	(-6.81071246926243e+01dB,-1.77597398791175e+02°)
1.81970085860998e+03	(-6.85066073624507e+01dB,-1.77683286413335e+02°)
1.86208713666286e+03	(-6.89061161302444e+01dB,-1.77767957385232e+02°)
1.90546071796324e+03	(-6.93056499626793e+01dB,-1.77851455905633e+02°)
1.94984459975804e+03	(-6.97052078788731e+01dB,-1.77933825603815e+02°)
1.99526231496887e+03	(-7.01047889483719e+01dB,-1.78015109559667e+02°)
2.04173794466952e+03	(-7.05043922892351e+01dB,-1.78095350323744e+02°)
2.08929613085403e+03	(-7.09040170662266e+01dB,-1.78174589937239e+02°)
2.13796208950222e+03	(-7.13036624890905e+01dB,-1.78252869951914e+02°)
2.18776162394954e+03	(-7.17033278109242e+01dB,-1.78330231449933e+02°)
2.23872113856833e+03	(-7.21030123266386e+01dB,-1.78406715063671e+02°)
2.29086765276776e+03	(-7.25027153715001e+01dB,-1.78482360995420e+02°)
2.34422881531991e+03	(-7.29024363197632e+01dB,-1.78557209037066e+02°)
2.39883291901948e+03	(-7.33021745833724e+01dB,-1.78631298589686e+02°)
2.45470891568502e+03	(-7.37019296107522e+01dB,-1.78704668683094e+02°)
2.51188643150957e+03	(-7.41017008856653e+01dB,-1.78777357995348e+02°)
2.57039578276885e+03	(-7.45014879261465e+01dB,-1.78849404872200e+02°)
2.63026799189537e+03	(-7.49012902835064e+01dB,-1.78920847346503e+02°)
2.69153480392690e+03	(-7.53011075414089e+01dB,-1.78991723157597e+02°)
2.75422870333815e+03	(-7.57009393150074e+01dB,-1.79062069770643e+02°)
2.81838293126444e+03	(-7.61007852501562e+01dB,-1.79131924395980e+02°)
2.88403150312659e+03	(-7.65006450226799e+01dB,-1.79201324008406e+02°)
2.95120922666637e+03	(-7.69005183377096e+01dB,-1.79270305366520e+02°)
3.01995172040200e+03	(-7.73004049290761e+01dB,-1.79338905032013e+02°)
3.09029543251358e+03	(-7.77003045587717e+01dB,-1.79407159389023e+02°)
3.16227766016836e+03	(-7.81002170164629e+01dB,-1.79475104663467e+02°)
3.23593656929627e+03	(-7.85001421190672e+01dB,-1.79542776942443e+02°)
3.31131121482590e+03	(-7.89000797103880e+01dB,-1.79610212193660e+02°)
3.38844156139201e+03	(-7.93000296608052e+01dB,-1.79677446284936e+02°)
3.46736850452530e+03	(-7.96999918670239e+01dB,-1.79744515003756e+02°)
3.54813389233574e+03	(-8.00999662518785e+01dB,-1.79811454076911e+02°)
3.63078054770100e+03	(-8.04999527641974e+01dB,-1.79878299190267e+02°)
3.71535229097171e+03	(-8.08999513787179e+01dB,-1.79945086008587e+02°)
3.80189396320559e+03	(-8.12999620960644e+01dB,1.79988149804458e+02°)
3.89045144994279e+03	(-8.16999849427768e+01dB,1.79921372566193e+02°)
3.98107170553495e+03	(-8.21000199714034e+01dB,1.79854546554627e+02°)
4.07380277804111e+03	(-8.25000672606421e+01dB,1.79787635988024e+02°)
4.16869383470333e+03	(-8.29001269155501e+01dB,1.79720605004217e+02°)
4.26579518801591e+03	(-8.33001990678040e+01dB,1.79653417639770e+02°)
4.36515832240164e+03	(-8.37002838760235e+01dB,1.79586037808855e+02°)
4.46683592150961e+03	(-8.41003815261568e+01dB,1.79518429281913e+02°)
4.57088189614873e+03	(-8.45004922319250e+01dB,1.79450555664004e+02°)
4.67735141287196e+03	(-8.49006162353331e+01dB,1.79382380372882e+02°)
4.78630092322636e+03	(-8.53007538072451e+01dB,1.79313866616736e+02°)
4.89778819368444e+03	(-8.57009052480250e+01dB,1.79244977371583e+02°)
5.01187233627270e+03	(-8.61010708882465e+01dB,1.79175675358263e+02°)
5.12861383991362e+03	(-8.65012510894754e+01dB,1.79105923019076e+02°)
5.24807460249770e+03	(-8.69014462451240e+01dB,1.79035682493922e+02°)
5.37031796370250e+03	(-8.73016567813813e+01dB,1.78964915596023e+02°)
5.49540873857622e+03	(-8.77018831582225e+01dB,1.78893583787107e+02°)
5.62341325190346e+03	(-8.81021258704977e+01dB,1.78821648152079e+02°)
5.75439937337154e+03	(-8.85023854491126e+01dB,1.78749069373103e+02°)
5.88843655355586e+03	(-8.89026624622860e+01dB,1.78675807703077e+02°)
6.02559586074354e+03	(-8.93029575169130e+01dB,1.78601822938445e+02°)
6.16595001861479e+03	(-8.97032712600137e+01dB,1.78527074391315e+02°)
6.30957344480190e+03	(-9.01036043802929e+01dB,1.78451520860818e+02°)
6.45654229034652e+03	(-9.05039576097965e+01dB,1.78375120603681e+02°)
6.60693448007592e+03	(-9.09043317256856e+01dB,1.78297831303934e+02°)
6.76082975391978e+03	(-9.13047275521269e+01dB,1.78219610041728e+02°)
6.91830970918932e+03	(-9.17051459623042e+01dB,1.78140413261157e+02°)
7.07945784384134e+03	(-9.21055878805633e+01dB,1.78060196737078e+02°)
7.24435960074986e+03	(-9.25060542846867e+01dB,1.77978915540806e+02°)
7.41310241300913e+03	(-9.29065462083230e+01dB,1.77896524004654e+02°)
7.58577575029179e+03	(-9.33070647435621e+01dB,1.77812975685209e+02°)
7.76247116628687e+03	(-9.37076110436729e+01dB,1.77728223325287e+02°)
7.94328234724277e+03	(-9.41081863260146e+01dB,1.77642218814470e+02°)
8.12830516164094e+03	(-9.45087918751289e+01dB,1.77554913148105e+02°)
8.31763771102666e+03	(-9.49094290460243e+01dB,1.77466256384731e+02°)
8.51138038202371e+03	(-9.53100992676649e+01dB,1.77376197601748e+02°)
8.70963589956075e+03	(-9.57108040466790e+01dB,1.77284684849286e+02°)
8.91250938133740e+03	(-9.61115449712972e+01dB,1.77191665102069e+02°)
9.12010839355904e+03	(-9.65123237155366e+01dB,1.77097084209264e+02°)
9.33254300796985e+03	(-9.69131420436549e+01dB,1.77000886842027e+02°)
9.54992586021430e+03	(-9.73140018148719e+01dB,1.76903016438733e+02°)
9.77237220955804e+03	(-9.77149049884070e+01dB,1.76803415147644e+02°)
9.99999999999993e+03	(-9.81158536288223e+01dB,1.76702023766867e+02°)
1.02329299228075e+04	(-9.85168499117187e+01dB,1.76598781681423e+02°)
1.04712854805089e+04	(-9.89178961297958e+01dB,1.76493626797247e+02°)
1.07151930523760e+04	(-9.93189946993012e+01dB,1.76386495471846e+02°)
1.09647819614318e+04	(-9.97201481669078e+01dB,1.76277322441469e+02°)
1.12201845430196e+04	(-1.00121359217038e+02dB,1.76166040744479e+02°)
1.14815362149688e+04	(-1.00522630679679e+02dB,1.76052581640691e+02°)
1.17489755493952e+04	(-1.00923965538719e+02dB,1.75936874526400e+02°)
1.20226443461740e+04	(-1.01325366940840e+02dB,1.75818846844781e+02°)
1.23026877081237e+04	(-1.01726838205032e+02dB,1.75698423991332e+02°)
1.25892541179416e+04	(-1.02128382832737e+02dB,1.75575529214013e+02°)
1.28824955169313e+04	(-1.02530004518726e+02dB,1.75450083507735e+02°)
1.31825673855640e+04	(-1.02931707162706e+02dB,1.75322005502702e+02°)
1.34896288259164e+04	(-1.03333494881780e+02dB,1.75191211346271e+02°)
1.38038426460288e+04	(-1.03735372023767e+02dB,1.75057614577766e+02°)
1.41253754462274e+04	(-1.04137343181514e+02dB,1.74921125995820e+02°)
1.44543977074592e+04	(-1.04539413208224e+02dB,1.74781653517574e+02°)
1.47910838816820e+04	(-1.04941587233940e+02dB,1.74639102029277e+02°)
1.51356124843620e+04	(-1.05343870683241e+02dB,1.74493373227513e+02°)
1.54881661891247e+04	(-1.05746269294283e+02dB,1.74344365450442e+02°)
1.58489319246110e+04	(-1.06148789139286e+02dB,1.74191973498247e+02°)
1.62181009735892e+04	(-1.06551436646611e+02dB,1.74036088442012e+02°)
1.65958690743755e+04	(-1.06954218624551e+02dB,1.73876597420110e+02°)
1.69824365246173e+04	(-1.07357142287011e+02dB,1.73713383421155e+02°)
1.73780082874936e+04	(-1.07760215281232e+02dB,1.73546325052498e+02°)
1.77827941003891e+04	(-1.08163445717762e+02dB,1.73375296293110e+02°)
1.81970085860997e+04	(-1.08566842202885e+02dB,1.73200166229655e+02°)
1.86208713666285e+04	(-1.08970413873730e+02dB,1.73020798774405e+02°)
1.90546071796323e+04	(-1.09374170436334e+02dB,1.72837052363590e+02°)
1.94984459975803e+04	(-1.09778122206931e+02dB,1.72648779634583e+02°)
1.99526231496887e+04	(-1.10182280156799e+02dB,1.72455827080264e+02°)
2.04173794466951e+04	(-1.10586655961005e+02dB,1.72258034678666e+02°)
2.08929613085402e+04	(-1.10991262051461e+02dB,1.72055235495953e+02°)
2.13796208950222e+04	(-1.11396111674706e+02dB,1.71847255260483e+02°)
2.18776162394954e+04	(-1.11801218954925e+02dB,1.71633911905637e+02°)
2.23872113856832e+04	(-1.12206598962739e+02dB,1.71415015078785e+02°)
2.29086765276776e+04	(-1.12612267790376e+02dB,1.71190365613574e+02°)
2.34422881531990e+04	(-1.13018242633923e+02dB,1.70959754962473e+02°)
2.39883291901947e+04	(-1.13424541883399e+02dB,1.70722964586211e+02°)
2.45470891568501e+04	(-1.13831185221536e+02dB,1.70479765296447e+02°)
2.51188643150956e+04	(-1.14238193732207e+02dB,1.70229916547701e+02°)
2.57039578276884e+04	(-1.14645590019613e+02dB,1.69973165674169e+02°)
2.63026799189536e+04	(-1.15053398339443e+02dB,1.69709247066672e+02°)
2.69153480392689e+04	(-1.15461644743365e+02dB,1.69437881284580e+02°)
2.75422870333814e+04	(-1.15870357238452e+02dB,1.69158774097006e+02°)
2.81838293126443e+04	(-1.16279565963270e+02dB,1.68871615447122e+02°)
2.88403150312658e+04	(-1.16689303382635e+02dB,1.68576078332852e+02°)
2.95120922666636e+04	(-1.17099604503314e+02dB,1.68271817596552e+02°)
3.01995172040199e+04	(-1.17510507113233e+02dB,1.67958468615694e+02°)
3.09029543251357e+04	(-1.17922052047126e+02dB,1.67635645885782e+02°)
3.16227766016835e+04	(-1.18334283481963e+02dB,1.67302941485979e+02°)
3.23593656929626e+04	(-1.18747249265963e+02dB,1.66959923417078e+02°)
3.31131121482588e+04	(-1.19161001285557e+02dB,1.66606133800565e+02°)
3.38844156139200e+04	(-1.19575595875273e+02dB,1.66241086926533e+02°)
3.46736850452529e+04	(-1.19991094276273e+02dB,1.65864267137245e+02°)
3.54813389233573e+04	(-1.20407563150124e+02dB,1.65475126532033e+02°)
3.63078054770098e+04	(-1.20825075155351e+02dB,1.65073082478164e+02°)
3.71535229097169e+04	(-1.21243709595506e+02dB,1.64657514911158e+02°)
3.80189396320558e+04	(-1.21663553148837e+02dB,1.64227763406975e+02°)
3.89045144994277e+04	(-1.22084700691211e+02dB,1.63783124007362e+02°)
3.98107170553494e+04	(-1.22507256225822e+02dB,1.63322845778713e+02°)
4.07380277804109e+04	(-1.22931333935392e+02dB,1.62846127083937e+02°)
4.16869383470332e+04	(-1.23357059375164e+02dB,1.62352111546257e+02°)
4.26579518801589e+04	(-1.23784570828008e+02dB,1.61839883683622e+02°)
4.36515832240162e+04	(-1.24214020846572e+02dB,1.61308464192703e+02°)
4.46683592150959e+04	(-1.24645578011700e+02dB,1.60756804862488e+02°)
4.57088189614871e+04	(-1.25079428941347e+02dB,1.60183783099474e+02°)
4.67735141287194e+04	(-1.25515780590354e+02dB,1.59588196049870e+02°)
4.78630092322634e+04	(-1.25954862888559e+02dB,1.58968754309422e+02°)
4.89778819368442e+04	(-1.26396931773438e+02dB,1.58324075219155e+02°)
5.01187233627268e+04	(-1.26842272683767e+02dB,1.57652675756219e+02°)
5.12861383991360e+04	(-1.27291204593304e+02dB,1.56952965044208e+02°)
5.24807460249768e+04	(-1.27744084678516e+02dB,1.56223236528112e+02°)
5.37031796370248e+04	(-1.28201313732611e+02dB,1.55461659887137e+02°)
5.49540873857620e+04	(-1.28663342460289e+02dB,1.54666272796273e+02°)
5.62341325190344e+04	(-1.29130678814655e+02dB,1.53834972697428e+02°)
5.75439937337152e+04	(-1.29603896570896e+02dB,1.52965508806879e+02°)
5.88843655355584e+04	(-1.30083645372133e+02dB,1.52055474672246e+02°)
6.02559586074352e+04	(-1.30570662533542e+02dB,1.51102301705142e+02°)
6.16595001861477e+04	(-1.31065786954016e+02dB,1.50103254262377e+02°)
6.30957344480187e+04	(-1.31569975564270e+02dB,1.49055427038713e+02°)
6.45654229034650e+04	(-1.32084322841439e+02dB,1.47955745779488e+02°)
6.60693448007590e+04	(-1.32610084050315e+02dB,1.46800972637319e+02°)
6.76082975391975e+04	(-1.33148703040874e+02dB,1.45587717902959e+02°)
6.91830970918930e+04	(-1.33701845656005e+02dB,1.44312460361641e+02°)
7.07945784384131e+04	(-1.34271440105246e+02dB,1.42971579196582e+02°)
7.24435960074983e+04	(-1.34859726074841e+02dB,1.41561401227188e+02°)
