Freq.	V(vout)
1.00000000000000e+02	(-2.08756842245167e+01dB,-1.35875107595716e+02°)
1.02329299228075e+02	(-2.11817812368709e+01dB,-1.36551000336442e+02°)
1.04712854805090e+02	(-2.14901947320249e+01dB,-1.37225482731857e+02°)
1.07151930523761e+02	(-2.18009152484283e+01dB,-1.37898209444757e+02°)
1.09647819614318e+02	(-2.21139308836525e+01dB,-1.38568839159941e+02°)
1.12201845430196e+02	(-2.24292273472039e+01dB,-1.39237035495655e+02°)
1.14815362149688e+02	(-2.27467880230526e+01dB,-1.39902467880837e+02°)
1.17489755493953e+02	(-2.30665940412845e+01dB,-1.40564812392861e+02°)
1.20226443461741e+02	(-2.33886243582329e+01dB,-1.41223752551148e+02°)
1.23026877081238e+02	(-2.37128558443633e+01dB,-1.41878980062396e+02°)
1.25892541179417e+02	(-2.40392633791664e+01dB,-1.42530195513857e+02°)
1.28824955169313e+02	(-2.43678199522382e+01dB,-1.43177109011614e+02°)
1.31825673855641e+02	(-2.46984967697245e+01dB,-1.43819440761239e+02°)
1.34896288259165e+02	(-2.50312633652816e+01dB,-1.44456921589278e+02°)
1.38038426460288e+02	(-2.53660877146925e+01dB,-1.45089293404090e+02°)
1.41253754462275e+02	(-2.57029363532906e+01dB,-1.45716309595387e+02°)
1.44543977074593e+02	(-2.60417744953525e+01dB,-1.46337735372492e+02°)
1.47910838816821e+02	(-2.63825661546458e+01dB,-1.46953348041722e+02°)
1.51356124843621e+02	(-2.67252742653384e+01dB,-1.47562937223667e+02°)
1.54881661891248e+02	(-2.70698608025381e+01dB,-1.48166305011995e+02°)
1.58489319246111e+02	(-2.74162869017408e+01dB,-1.48763266075470e+02°)
1.62181009735893e+02	(-2.77645129765485e+01dB,-1.49353647705324e+02°)
1.65958690743756e+02	(-2.81144988340426e+01dB,-1.49937289810625e+02°)
1.69824365246174e+02	(-2.84662037872755e+01dB,-1.50514044864235e+02°)
1.73780082874937e+02	(-2.88195867643858e+01dB,-1.51083777802644e+02°)
1.77827941003892e+02	(-2.91746064139129e+01dB,-1.51646365882457e+02°)
1.81970085860998e+02	(-2.95312212059326e+01dB,-1.52201698497241e+02°)
1.86208713666287e+02	(-2.98893895287066e+01dB,-1.52749676957849e+02°)
1.90546071796324e+02	(-3.02490697805898e+01dB,-1.53290214239743e+02°)
1.94984459975804e+02	(-3.06102204569837e+01dB,-1.53823234700822e+02°)
1.99526231496888e+02	(-3.09728002322068e+01dB,-1.54348673773041e+02°)
2.04173794466953e+02	(-3.13367680361547e+01dB,-1.54866477631233e+02°)
2.08929613085404e+02	(-3.17020831257180e+01dB,-1.55376602842415e+02°)
2.13796208950223e+02	(-3.20687051509355e+01dB,-1.55879015998672e+02°)
2.18776162394955e+02	(-3.24365942159101e+01dB,-1.56373693336596e+02°)
2.23872113856834e+02	(-3.28057109345509e+01dB,-1.56860620346303e+02°)
2.29086765276777e+02	(-3.31760164812294e+01dB,-1.57339791372551e+02°)
2.34422881531992e+02	(-3.35474726364796e+01dB,-1.57811209210554e+02°)
2.39883291901949e+02	(-3.39200418278726e+01dB,-1.58274884698948e+02°)
2.45470891568503e+02	(-3.42936871662393e+01dB,-1.58730836311858e+02°)
2.51188643150958e+02	(-3.46683724774144e+01dB,-1.59179089752298e+02°)
2.57039578276886e+02	(-3.50440623297013e+01dB,-1.59619677548556e+02°)
2.63026799189538e+02	(-3.54207220572558e+01dB,-1.60052638655238e+02°)
2.69153480392691e+02	(-3.57983177796040e+01dB,-1.60478018060422e+02°)
2.75422870333816e+02	(-3.61768164175096e+01dB,-1.60895866400222e+02°)
2.81838293126445e+02	(-3.65561857054122e+01dB,-1.61306239581908e+02°)
2.88403150312660e+02	(-3.69363942006499e+01dB,-1.61709198416437e+02°)
2.95120922666638e+02	(-3.73174112896959e+01dB,-1.62104808261376e+02°)
3.01995172040201e+02	(-3.76992071916130e+01dB,-1.62493138674771e+02°)
3.09029543251358e+02	(-3.80817529589516e+01dB,-1.62874263080596e+02°)
3.16227766016837e+02	(-3.84650204762845e+01dB,-1.63248258446235e+02°)
3.23593656929628e+02	(-3.88489824565897e+01dB,-1.63615204972204e+02°)
3.31131121482590e+02	(-3.92336124356674e+01dB,-1.63975185794530e+02°)
3.38844156139202e+02	(-3.96188847647828e+01dB,-1.64328286699765e+02°)
3.46736850452531e+02	(-4.00047746017081e+01dB,-1.64674595852787e+02°)
3.54813389233575e+02	(-4.03912579003335e+01dB,-1.65014203537323e+02°)
3.63078054770101e+02	(-4.07783113990076e+01dB,-1.65347201909174e+02°)
3.71535229097172e+02	(-4.11659126077588e+01dB,-1.65673684761921e+02°)
3.80189396320560e+02	(-4.15540397945389e+01dB,-1.65993747305000e+02°)
3.89045144994280e+02	(-4.19426719706228e+01dB,-1.66307485953891e+02°)
3.98107170553496e+02	(-4.23317888752868e+01dB,-1.66614998132123e+02°)
4.07380277804112e+02	(-4.27213709598849e+01dB,-1.66916382084839e+02°)
4.16869383470335e+02	(-4.31113993714242e+01dB,-1.67211736703581e+02°)
4.26579518801592e+02	(-4.35018559357466e+01dB,-1.67501161361928e+02°)
4.36515832240165e+02	(-4.38927231403959e+01dB,-1.67784755761678e+02°)
4.46683592150962e+02	(-4.42839841172727e+01dB,-1.68062619789131e+02°)
4.57088189614874e+02	(-4.46756226251265e+01dB,-1.68334853381148e+02°)
4.67735141287197e+02	(-4.50676230319854e+01dB,-1.68601556400561e+02°)
4.78630092322637e+02	(-4.54599702975598e+01dB,-1.68862828520581e+02°)
4.89778819368445e+02	(-4.58526499556897e+01dB,-1.69118769117732e+02°)
5.01187233627271e+02	(-4.62456480968903e+01dB,-1.69369477173060e+02°)
5.12861383991364e+02	(-4.66389513510279e+01dB,-1.69615051181052e+02°)
5.24807460249771e+02	(-4.70325468701799e+01dB,-1.69855589066096e+02°)
5.37031796370251e+02	(-4.74264223117071e+01dB,-1.70091188105881e+02°)
5.49540873857623e+02	(-4.78205658215720e+01dB,-1.70321944861577e+02°)
5.62341325190348e+02	(-4.82149660179308e+01dB,-1.70547955114308e+02°)
5.75439937337155e+02	(-4.86096119750210e+01dB,-1.70769313807632e+02°)
5.88843655355587e+02	(-4.90044932073662e+01dB,-1.70986114995673e+02°)
6.02559586074356e+02	(-4.93995996543175e+01dB,-1.71198451796624e+02°)
6.16595001861481e+02	(-4.97949216649362e+01dB,-1.71406416351210e+02°)
6.30957344480192e+02	(-5.01904499832414e+01dB,-1.71610099785949e+02°)
6.45654229034654e+02	(-5.05861757338244e+01dB,-1.71809592180809e+02°)
6.60693448007594e+02	(-5.09820904078339e+01dB,-1.72004982541062e+02°)
6.76082975391980e+02	(-5.13781858493477e+01dB,-1.72196358773023e+02°)
6.91830970918935e+02	(-5.17744542421184e+01dB,-1.72383807663428e+02°)
7.07945784384136e+02	(-5.21708880967113e+01dB,-1.72567414862288e+02°)
7.24435960074988e+02	(-5.25674802380200e+01dB,-1.72747264868844e+02°)
7.41310241300916e+02	(-5.29642237931648e+01dB,-1.72923441020571e+02°)
7.58577575029182e+02	(-5.33611121797761e+01dB,-1.73096025484907e+02°)
7.76247116628690e+02	(-5.37581390946461e+01dB,-1.73265099253548e+02°)
7.94328234724279e+02	(-5.41552985027593e+01dB,-1.73430742139166e+02°)
8.12830516164097e+02	(-5.45525846266865e+01dB,-1.73593032774314e+02°)
8.31763771102669e+02	(-5.49499919363381e+01dB,-1.73752048612381e+02°)
8.51138038202374e+02	(-5.53475151390785e+01dB,-1.73907865930469e+02°)
8.70963589956078e+02	(-5.57451491701782e+01dB,-1.74060559833982e+02°)
8.91250938133743e+02	(-5.61428891836164e+01dB,-1.74210204262861e+02°)
9.12010839355907e+02	(-5.65407305432087e+01dB,-1.74356871999286e+02°)
9.33254300796988e+02	(-5.69386688140656e+01dB,-1.74500634676743e+02°)
9.54992586021433e+02	(-5.73366997543620e+01dB,-1.74641562790347e+02°)
9.77237220955808e+02	(-5.77348193074227e+01dB,-1.74779725708303e+02°)
9.99999999999997e+02	(-5.81330235941010e+01dB,-1.74915191684413e+02°)
1.02329299228075e+03	(-5.85313089054536e+01dB,-1.75048027871527e+02°)
1.04712854805090e+03	(-5.89296716957003e+01dB,-1.75178300335879e+02°)
1.07151930523760e+03	(-5.93281085754539e+01dB,-1.75306074072176e+02°)
1.09647819614318e+03	(-5.97266163052218e+01dB,-1.75431413019422e+02°)
1.12201845430196e+03	(-6.01251917891654e+01dB,-1.75554380077365e+02°)
1.14815362149688e+03	(-6.05238320691055e+01dB,-1.75675037123520e+02°)
1.17489755493953e+03	(-6.09225343187788e+01dB,-1.75793445030697e+02°)
1.20226443461741e+03	(-6.13212958383209e+01dB,-1.75909663685007e+02°)
1.23026877081238e+03	(-6.17201140489776e+01dB,-1.76023752004237e+02°)
1.25892541179416e+03	(-6.21189864880392e+01dB,-1.76135767956615e+02°)
1.28824955169313e+03	(-6.25179108039821e+01dB,-1.76245768579861e+02°)
1.31825673855640e+03	(-6.29168847518145e+01dB,-1.76353810000520e+02°)
1.34896288259165e+03	(-6.33159061886244e+01dB,-1.76459947453531e+02°)
1.38038426460288e+03	(-6.37149730693091e+01dB,-1.76564235301979e+02°)
1.41253754462275e+03	(-6.41140834424958e+01dB,-1.76666727057035e+02°)
1.44543977074592e+03	(-6.45132354466341e+01dB,-1.76767475398011e+02°)
1.47910838816820e+03	(-6.49124273062624e+01dB,-1.76866532192553e+02°)
1.51356124843620e+03	(-6.53116573284341e+01dB,-1.76963948516882e+02°)
1.54881661891248e+03	(-6.57109238993059e+01dB,-1.77059774676155e+02°)
1.58489319246111e+03	(-6.61102254808779e+01dB,-1.77154060224823e+02°)
1.62181009735892e+03	(-6.65095606078772e+01dB,-1.77246853987043e+02°)
1.65958690743755e+03	(-6.69089278847885e+01dB,-1.77338204077098e+02°)
1.69824365246174e+03	(-6.73083259830163e+01dB,-1.77428157919822e+02°)
1.73780082874937e+03	(-6.77077536381806e+01dB,-1.77516762270995e+02°)
1.77827941003892e+03	(-6.81072096475383e+01dB,-1.77604063237741e+02°)
1.81970085860998e+03	(-6.85066928675284e+01dB,-1.77690106298862e+02°)
1.86208713666286e+03	(-6.89062022114301e+01dB,-1.77774936325163e+02°)
1.90546071796324e+03	(-6.93057366471390e+01dB,-1.77858597599700e+02°)
1.94984459975804e+03	(-6.97052951950526e+01dB,-1.77941133838004e+02°)
1.99526231496887e+03	(-7.01048769260570e+01dB,-1.78022588208218e+02°)
2.04173794466952e+03	(-7.05044809596147e+01dB,-1.78103003351207e+02°)
2.08929613085403e+03	(-7.09041064619588e+01dB,-1.78182421400568e+02°)
2.13796208950222e+03	(-7.13037526443719e+01dB,-1.78260884002613e+02°)
2.18776162394954e+03	(-7.17034187615626e+01dB,-1.78338432336259e+02°)
2.23872113856833e+03	(-7.21031041101287e+01dB,-1.78415107132879e+02°)
2.29086765276776e+03	(-7.25028080271032e+01dB,-1.78490948696061e+02°)
2.34422881531991e+03	(-7.29025298885906e+01dB,-1.78565996921345e+02°)
2.39883291901948e+03	(-7.33022691084726e+01dB,-1.78640291315868e+02°)
2.45470891568502e+03	(-7.37020251372014e+01dB,-1.78713871017968e+02°)
2.51188643150957e+03	(-7.41017974606642e+01dB,-1.78786774816750e+02°)
2.57039578276885e+03	(-7.45015855991195e+01dB,-1.78859041171591e+02°)
2.63026799189537e+03	(-7.49013891062072e+01dB,-1.78930708231611e+02°)
2.69153480392690e+03	(-7.53012075680294e+01dB,-1.79001813855113e+02°)
2.75422870333815e+03	(-7.57010406022937e+01dB,-1.79072395628992e+02°)
2.81838293126444e+03	(-7.61008878575278e+01dB,-1.79142490888138e+02°)
2.88403150312659e+03	(-7.65007490123567e+01dB,-1.79212136734802e+02°)
2.95120922666637e+03	(-7.69006237748434e+01dB,-1.79281370057992e+02°)
3.01995172040200e+03	(-7.73005118818884e+01dB,-1.79350227552832e+02°)
3.09029543251358e+03	(-7.77004130986996e+01dB,-1.79418745739998e+02°)
3.16227766016836e+03	(-7.81003272183093e+01dB,-1.79486960985109e+02°)
3.23593656929627e+03	(-7.85002540611603e+01dB,-1.79554909518213e+02°)
3.31131121482590e+03	(-7.89001934747472e+01dB,-1.79622627453282e+02°)
3.38844156139201e+03	(-7.93001453333148e+01dB,-1.79690150807793e+02°)
3.46736850452530e+03	(-7.97001095376158e+01dB,-1.79757515522362e+02°)
3.54813389233574e+03	(-8.01000860147223e+01dB,-1.79824757480464e+02°)
3.63078054770100e+03	(-8.05000747179007e+01dB,-1.79891912528285e+02°)
3.71535229097171e+03	(-8.09000756265349e+01dB,-1.79959016494621e+02°)
3.80189396320559e+03	(-8.13000887461155e+01dB,1.79973894789014e+02°)
3.89045144994279e+03	(-8.17001141082774e+01dB,1.79906785468216e+02°)
3.98107170553495e+03	(-8.21001517709045e+01dB,1.79839619645282e+02°)
4.07380277804111e+03	(-8.25002018182814e+01dB,1.79772361358691e+02°)
4.16869383470333e+03	(-8.29002643613149e+01dB,1.79704974562327e+02°)
4.26579518801591e+03	(-8.33003395378080e+01dB,1.79637423104545e+02°)
4.36515832240164e+03	(-8.37004275127941e+01dB,1.79569670706951e+02°)
4.46683592150961e+03	(-8.41005284789389e+01dB,1.79501680942953e+02°)
4.57088189614873e+03	(-8.45006426569961e+01dB,1.79433417216028e+02°)
4.67735141287196e+03	(-8.49007702963357e+01dB,1.79364842737674e+02°)
4.78630092322636e+03	(-8.53009116755331e+01dB,1.79295920505061e+02°)
4.89778819368444e+03	(-8.57010671030278e+01dB,1.79226613278299e+02°)
5.01187233627270e+03	(-8.61012369178491e+01dB,1.79156883557333e+02°)
5.12861383991362e+03	(-8.65014214904166e+01dB,1.79086693558462e+02°)
5.24807460249770e+03	(-8.69016212234145e+01dB,1.79016005190365e+02°)
5.37031796370250e+03	(-8.73018365527394e+01dB,1.78944780029704e+02°)
5.49540873857622e+03	(-8.77020679485327e+01dB,1.78872979296185e+02°)
5.62341325190346e+03	(-8.81023159162891e+01dB,1.78800563827101e+02°)
5.75439937337154e+03	(-8.85025809980607e+01dB,1.78727494051303e+02°)
5.88843655355586e+03	(-8.89028637737380e+01dB,1.78653729962527e+02°)
6.02559586074354e+03	(-8.93031648624376e+01dB,1.78579231092088e+02°)
6.16595001861479e+03	(-8.97034849239770e+01dB,1.78503956480857e+02°)
6.30957344480190e+03	(-9.01038246604618e+01dB,1.78427864650480e+02°)
6.45654229034652e+03	(-9.05041848179695e+01dB,1.78350913573823e+02°)
6.60693448007592e+03	(-9.09045661883547e+01dB,1.78273060644519e+02°)
6.76082975391978e+03	(-9.13049696111693e+01dB,1.78194262645656e+02°)
6.91830970918932e+03	(-9.17053959757073e+01dB,1.78114475717437e+02°)
7.07945784384134e+03	(-9.21058462231846e+01dB,1.78033655323854e+02°)
7.24435960074986e+03	(-9.25063213490475e+01dB,1.77951756218232e+02°)
7.41310241300913e+03	(-9.29068224054416e+01dB,1.77868732407601e+02°)
7.58577575029179e+03	(-9.33073505038248e+01dB,1.77784537115820e+02°)
7.76247116628687e+03	(-9.37079068177470e+01dB,1.77699122745361e+02°)
7.94328234724277e+03	(-9.41084925858032e+01dB,1.77612440837681e+02°)
8.12830516164094e+03	(-9.45091091147722e+01dB,1.77524442032051e+02°)
8.31763771102666e+03	(-9.49097577829469e+01dB,1.77435076022808e+02°)
8.51138038202371e+03	(-9.53104400436730e+01dB,1.77344291514848e+02°)
8.70963589956075e+03	(-9.57111574291089e+01dB,1.77252036177309e+02°)
8.91250938133740e+03	(-9.61119115542182e+01dB,1.77158256595258e+02°)
9.12010839355904e+03	(-9.65127041210103e+01dB,1.77062898219350e+02°)
9.33254300796985e+03	(-9.69135369230543e+01dB,1.76965905313186e+02°)
9.54992586021430e+03	(-9.73144118502619e+01dB,1.76867220898343e+02°)
9.77237220955804e+03	(-9.77153308939906e+01dB,1.76766786696847e+02°)
9.99999999999993e+03	(-9.81162961524536e+01dB,1.76664543070941e+02°)
1.02329299228075e+04	(-9.85173098364896e+01dB,1.76560428959931e+02°)
1.04712854805089e+04	(-9.89183742756951e+01dB,1.76454381813998e+02°)
1.07151930523760e+04	(-9.93194919249523e+01dB,1.76346337524633e+02°)
1.09647819614318e+04	(-9.97206653713891e+01dB,1.76236230351599e+02°)
1.12201845430196e+04	(-1.00121897341789e+02dB,1.76123992846090e+02°)
1.14815362149688e+04	(-1.00523190710494e+02dB,1.76009555769837e+02°)
1.17489755493952e+04	(-1.00924548507837e+02dB,1.75892848009930e+02°)
1.20226443461740e+04	(-1.01325973929133e+02dB,1.75773796488977e+02°)
1.23026877081237e+04	(-1.01727470344294e+02dB,1.75652326070332e+02°)
1.25892541179416e+04	(-1.02129041308084e+02dB,1.75528359457994e+02°)
1.28824955169313e+04	(-1.02530690571105e+02dB,1.75401817090863e+02°)
1.31825673855640e+04	(-1.02932422091527e+02dB,1.75272617030853e+02°)
1.34896288259164e+04	(-1.03334240047667e+02dB,1.75140674844503e+02°)
1.38038426460288e+04	(-1.03736148851440e+02dB,1.75005903477559e+02°)
1.41253754462274e+04	(-1.04138153162811e+02dB,1.74868213122070e+02°)
1.44543977074592e+04	(-1.04540257905256e+02dB,1.74727511075340e+02°)
1.47910838816820e+04	(-1.04942468282403e+02dB,1.74583701590290e+02°)
1.51356124843620e+04	(-1.05344789795880e+02dB,1.74436685716427e+02°)
1.54881661891247e+04	(-1.05747228264521e+02dB,1.74286361130846e+02°)
1.58489319246110e+04	(-1.06149789845018e+02dB,1.74132621958428e+02°)
1.62181009735892e+04	(-1.06552481054185e+02dB,1.73975358580459e+02°)
1.65958690743755e+04	(-1.06955308792930e+02dB,1.73814457430782e+02°)
1.69824365246173e+04	(-1.07358280372129e+02dB,1.73649800778493e+02°)
1.73780082874936e+04	(-1.07761403540565e+02dB,1.73481266496195e+02°)
1.77827941003891e+04	(-1.08164686515101e+02dB,1.73308727812628e+02°)
1.81970085860997e+04	(-1.08568138013344e+02dB,1.73132053048503e+02°)
1.86208713666285e+04	(-1.08971767288981e+02dB,1.72951105334176e+02°)
1.90546071796323e+04	(-1.09375584170094e+02dB,1.72765742307762e+02°)
1.94984459975803e+04	(-1.09779599100703e+02dB,1.72575815792080e+02°)
1.99526231496887e+04	(-1.10183823185884e+02dB,1.72381171448794e+02°)
2.04173794466951e+04	(-1.10588268240800e+02dB,1.72181648407833e+02°)
2.08929613085402e+04	(-1.10992946844044e+02dB,1.71977078870155e+02°)
2.13796208950222e+04	(-1.11397872395740e+02dB,1.71767287681598e+02°)
2.18776162394954e+04	(-1.11803059180879e+02dB,1.71552091875507e+02°)
2.23872113856832e+04	(-1.12208522438450e+02dB,1.71331300181519e+02°)
2.29086765276776e+04	(-1.12614278436969e+02dB,1.71104712497659e+02°)
2.34422881531990e+04	(-1.13020344557097e+02dB,1.70872119322726e+02°)
2.39883291901947e+04	(-1.13426739382108e+02dB,1.70633301145577e+02°)
2.45470891568501e+04	(-1.13833482797070e+02dB,1.70388027787652e+02°)
2.51188643150956e+04	(-1.14240596097704e+02dB,1.70136057694798e+02°)
2.57039578276884e+04	(-1.14648102110018e+02dB,1.69877137173971e+02°)
2.63026799189536e+04	(-1.15056025321926e+02dB,1.69610999570112e+02°)
2.69153480392689e+04	(-1.15464392028237e+02dB,1.69337364378007e+02°)
2.75422870333814e+04	(-1.15873230490586e+02dB,1.69055936283458e+02°)
2.81838293126443e+04	(-1.16282571114058e+02dB,1.68766404127593e+02°)
2.88403150312658e+04	(-1.16692446642506e+02dB,1.68468439787580e+02°)
2.95120922666636e+04	(-1.17102892374838e+02dB,1.68161696966380e+02°)
3.01995172040199e+04	(-1.17513946404836e+02dB,1.67845809883522e+02°)
3.09029543251357e+04	(-1.17925649887447e+02dB,1.67520391858160e+02°)
3.16227766016835e+04	(-1.18338047334889e+02dB,1.67185033774881e+02°)
3.23593656929626e+04	(-1.18751186946355e+02dB,1.66839302421914e+02°)
3.31131121482588e+04	(-1.19165120975719e+02dB,1.66482738690464e+02°)
3.38844156139200e+04	(-1.19579906142190e+02dB,1.66114855622980e+02°)
3.46736850452529e+04	(-1.19995604089652e+02dB,1.65735136297110e+02°)
3.54813389233573e+04	(-1.20412281901277e+02dB,1.65343031531074e+02°)
3.63078054770098e+04	(-1.20830012676959e+02dB,1.64937957395068e+02°)
3.71535229097169e+04	(-1.21248876182308e+02dB,1.64519292512210e+02°)
3.80189396320558e+04	(-1.21668959579280e+02dB,1.64086375131427e+02°)
3.89045144994277e+04	(-1.22090358250109e+02dB,1.63638499953607e+02°)
3.98107170553494e+04	(-1.22513176728077e+02dB,1.63174914691360e+02°)
4.07380277804109e+04	(-1.22937529750808e+02dB,1.62694816341893e+02°)
4.16869383470332e+04	(-1.23363543454427e+02dB,1.62197347151941e+02°)
4.26579518801589e+04	(-1.23791356729868e+02dB,1.61681590253434e+02°)
4.36515832240162e+04	(-1.24221122766291e+02dB,1.61146564948895e+02°)
4.46683592150959e+04	(-1.24653010810822e+02dB,1.60591221626573e+02°)
4.57088189614871e+04	(-1.25087208178853e+02dB,1.60014436287353e+02°)
4.67735141287194e+04	(-1.25523922555255e+02dB,1.59415004668841e+02°)
4.78630092322634e+04	(-1.25963384634013e+02dB,1.58791635957268e+02°)
4.89778819368442e+04	(-1.26405851152438e+02dB,1.58142946085521e+02°)
5.01187233627268e+04	(-1.26851608386490e+02dB,1.57467450626498e+02°)
5.12861383991360e+04	(-1.27300976186184e+02dB,1.56763557306184e+02°)
5.24807460249768e+04	(-1.27754312645126e+02dB,1.56029558181624e+02°)
5.37031796370248e+04	(-1.28212019516433e+02dB,1.55263621557056e+02°)
5.49540873857620e+04	(-1.28674548509461e+02dB,1.54463783749102e+02°)
5.62341325190344e+04	(-1.29142408628778e+02dB,1.53627940861873e+02°)
5.75439937337152e+04	(-1.29616174749996e+02dB,1.52753840798750e+02°)
5.88843655355584e+04	(-1.30096497667872e+02dB,1.51839075824115e+02°)
6.02559586074352e+04	(-1.30584115902777e+02dB,1.50881076101183e+02°)
6.16595001861477e+04	(-1.31079869614811e+02dB,1.49877104778883e+02°)
6.30957344480187e+04	(-1.31584717054454e+02dB,1.48824255390801e+02°)
6.45654229034650e+04	(-1.32099754079828e+02dB,1.47719452574590e+02°)
6.60693448007590e+04	(-1.32626237400697e+02dB,1.46559457436065e+02°)
6.76082975391975e+04	(-1.33165612378873e+02dB,1.45340879288139e+02°)
6.91830970918930e+04	(-1.33719546438918e+02dB,1.44060196015976e+02°)
7.07945784384131e+04	(-1.34289969444975e+02dB,1.42713785990093e+02°)
7.24435960074983e+04	(-1.34879122814000e+02dB,1.41297975315010e+02°)
