Freq.	V(vout)
1.00000000000000e+02	(-9.43095047768874e+00dB,-3.87248841287139e+01°)
1.02329299228075e+02	(-9.50989084306504e+00dB,-3.80937369866698e+01°)
1.04712854805090e+02	(-9.58664250398669e+00dB,-3.74655976538291e+01°)
1.07151930523761e+02	(-9.66122871568745e+00dB,-3.68407766223632e+01°)
1.09647819614318e+02	(-9.73367462388080e+00dB,-3.62195754299332e+01°)
1.12201845430196e+02	(-9.80400716831534e+00dB,-3.56022860731093e+01°)
1.14815362149688e+02	(-9.87225498141933e+00dB,-3.49891904740068e+01°)
1.17489755493953e+02	(-9.93844828279442e+00dB,-3.43805600017581e+01°)
1.20226443461741e+02	(-1.00026187703410e+01dB,-3.37766550500797e+01°)
1.23026877081238e+02	(-1.00647995087785e+01dB,-3.31777246715219e+01°)
1.25892541179417e+02	(-1.01250248163410e+01dB,-3.25840062686321e+01°)
1.28824955169313e+02	(-1.01833301503772e+01dB,-3.19957253416859e+01°)
1.31825673855641e+02	(-1.02397519925838e+01dB,-3.14130952920360e+01°)
1.34896288259165e+02	(-1.02943277345590e+01dB,-3.08363172801718e+01°)
1.38038426460288e+02	(-1.03470955643242e+01dB,-3.02655801366697e+01°)
1.41253754462275e+02	(-1.03980943544216e+01dB,-2.97010603241096e+01°)
1.44543977074593e+02	(-1.04473635521502e+01dB,-2.91429219478450e+01°)
1.47910838816821e+02	(-1.04949430724540e+01dB,-2.85913168130943e+01°)
1.51356124843621e+02	(-1.05408731939131e+01dB,-2.80463845254883e+01°)
1.54881661891248e+02	(-1.05851944582617e+01dB,-2.75082526324072e+01°)
1.58489319246111e+02	(-1.06279475737711e+01dB,-2.69770368019923e+01°)
1.62181009735893e+02	(-1.06691733228117e+01dB,-2.64528410366606e+01°)
1.65958690743756e+02	(-1.07089124738371e+01dB,-2.59357579181117e+01°)
1.69824365246174e+02	(-1.07472056979945e+01dB,-2.54258688804698e+01°)
1.73780082874937e+02	(-1.07840934905087e+01dB,-2.49232445086844e+01°)
1.77827941003892e+02	(-1.08196160969520e+01dB,-2.44279448586701e+01°)
1.81970085860998e+02	(-1.08538134444538e+01dB,-2.39400197965510e+01°)
1.86208713666287e+02	(-1.08867250778809e+01dB,-2.34595093537855e+01°)
1.90546071796324e+02	(-1.09183901009707e+01dB,-2.29864440954201e+01°)
1.94984459975804e+02	(-1.09488471223676e+01dB,-2.25208454988418e+01°)
1.99526231496888e+02	(-1.09781342064961e+01dB,-2.20627263403421e+01°)
2.04173794466953e+02	(-1.10062888291495e+01dB,-2.16120910871401e+01°)
2.08929613085404e+02	(-1.10333478376827e+01dB,-2.11689362926609e+01°)
2.13796208950223e+02	(-1.10593474156579e+01dB,-2.07332509929103e+01°)
2.18776162394955e+02	(-1.10843230517752e+01dB,-2.03050171020146e+01°)
2.23872113856834e+02	(-1.11083095129172e+01dB,-1.98842098053182e+01°)
2.29086765276777e+02	(-1.11313408211147e+01dB,-1.94707979482984e+01°)
2.34422881531992e+02	(-1.11534502342451e+01dB,-1.90647444199251e+01°)
2.39883291901949e+02	(-1.11746702302517e+01dB,-1.86660065293151e+01°)
2.45470891568503e+02	(-1.11950324946863e+01dB,-1.82745363743504e+01°)
2.51188643150958e+02	(-1.12145679113654e+01dB,-1.78902812015501e+01°)
2.57039578276886e+02	(-1.12333065559330e+01dB,-1.75131837561967e+01°)
2.63026799189538e+02	(-1.12512776921262e+01dB,-1.71431826220996e+01°)
2.69153480392691e+02	(-1.12685097705425e+01dB,-1.67802125504047e+01°)
2.75422870333816e+02	(-1.12850304297091e+01dB,-1.64242047770192e+01°)
2.81838293126445e+02	(-1.13008664992695e+01dB,-1.60750873283314e+01°)
2.88403150312660e+02	(-1.13160440050891e+01dB,-1.57327853148536e+01°)
2.95120922666638e+02	(-1.13305881761176e+01dB,-1.53972212127852e+01°)
3.01995172040201e+02	(-1.13445234528219e+01dB,-1.50683151332965e+01°)
3.09029543251358e+02	(-1.13578734970410e+01dB,-1.47459850795743e+01°)
3.16227766016837e+02	(-1.13706612030933e+01dB,-1.44301471917215e+01°)
3.23593656929628e+02	(-1.13829087100023e+01dB,-1.41207159794934e+01°)
3.31131121482590e+02	(-1.13946374146946e+01dB,-1.38176045432080e+01°)
3.38844156139202e+02	(-1.14058679860457e+01dB,-1.35207247828900e+01°)
3.46736850452531e+02	(-1.14166203796480e+01dB,-1.32299875959770e+01°)
3.54813389233575e+02	(-1.14269138531924e+01dB,-1.29453030638139e+01°)
3.63078054770101e+02	(-1.14367669823530e+01dB,-1.26665806272991e+01°)
3.71535229097172e+02	(-1.14461976770845e+01dB,-1.23937292519301e+01°)
3.80189396320560e+02	(-1.14552231982362e+01dB,-1.21266575826478e+01°)
3.89045144994280e+02	(-1.14638601744058e+01dB,-1.18652740888277e+01°)
3.98107170553496e+02	(-1.14721246189529e+01dB,-1.16094871997451e+01°)
4.07380277804112e+02	(-1.14800319471089e+01dB,-1.13592054309282e+01°)
4.16869383470335e+02	(-1.14875969931131e+01dB,-1.11143375017645e+01°)
4.26579518801592e+02	(-1.14948340273303e+01dB,-1.08747924447080e+01°)
4.36515832240165e+02	(-1.15017567732830e+01dB,-1.06404797065173e+01°)
4.46683592150962e+02	(-1.15083784245739e+01dB,-1.04113092418381e+01°)
4.57088189614874e+02	(-1.15147116616323e+01dB,-1.01871915995454e+01°)
4.67735141287197e+02	(-1.15207686682777e+01dB,-9.96803800216772e+00°)
4.78630092322637e+02	(-1.15265611480418e+01dB,-9.75376041879621e+00°)
4.89778819368445e+02	(-1.15321003402383e+01dB,-9.54427163174358e+00°)
5.01187233627271e+02	(-1.15373970357547e+01dB,-9.33948529741152e+00°)
5.12861383991364e+02	(-1.15424615925372e+01dB,-9.13931600153313e+00°)
5.24807460249771e+02	(-1.15473039507624e+01dB,-8.94367930930018e+00°)
5.37031796370251e+02	(-1.15519336476724e+01dB,-8.75249181046199e+00°)
5.49540873857623e+02	(-1.15563598320686e+01dB,-8.56567115989138e+00°)
5.62341325190348e+02	(-1.15605912784489e+01dB,-8.38313611375726e+00°)
5.75439937337155e+02	(-1.15646364007857e+01dB,-8.20480656165093e+00°)
5.88843655355587e+02	(-1.15685032659372e+01dB,-8.03060355488518e+00°)
6.02559586074356e+02	(-1.15721996066913e+01dB,-7.86044933126746e+00°)
6.16595001861481e+02	(-1.15757328344342e+01dB,-7.69426733648056e+00°)
6.30957344480192e+02	(-1.15791100514504e+01dB,-7.53198224243001e+00°)
6.45654229034654e+02	(-1.15823380628549e+01dB,-7.37351996266035e+00°)
6.60693448007594e+02	(-1.15854233881502e+01dB,-7.21880766511460e+00°)
6.76082975391980e+02	(-1.15883722724258e+01dB,-7.06777378239154e+00°)
6.91830970918935e+02	(-1.15911906971903e+01dB,-6.92034801967701e+00°)
7.07945784384136e+02	(-1.15938843908531e+01dB,-6.77646136060129e+00°)
7.24435960074988e+02	(-1.15964588388514e+01dB,-6.63604607105161e+00°)
7.41310241300916e+02	(-1.15989192934330e+01dB,-6.49903570123607e+00°)
7.58577575029182e+02	(-1.16012707831049e+01dB,-6.36536508604831e+00°)
7.76247116628690e+02	(-1.16035181217457e+01dB,-6.23497034389116e+00°)
7.94328234724279e+02	(-1.16056659173988e+01dB,-6.10778887413751e+00°)
8.12830516164097e+02	(-1.16077185807479e+01dB,-5.98375935328821e+00°)
8.31763771102669e+02	(-1.16096803332834e+01dB,-5.86282172995947e+00°)
8.51138038202374e+02	(-1.16115552151738e+01dB,-5.74491721885369e+00°)
8.70963589956078e+02	(-1.16133470928368e+01dB,-5.62998829372656e+00°)
8.91250938133743e+02	(-1.16150596662363e+01dB,-5.51797867953801e+00°)
9.12010839355907e+02	(-1.16166964758968e+01dB,-5.40883334381126e+00°)
9.33254300796988e+02	(-1.16182609096560e+01dB,-5.30249848731144e+00°)
9.54992586021433e+02	(-1.16197562091541e+01dB,-5.19892153411815e+00°)
9.77237220955808e+02	(-1.16211854760783e+01dB,-5.09805112115779e+00°)
9.99999999999997e+02	(-1.16225516781593e+01dB,-4.99983708727653e+00°)
1.02329299228075e+03	(-1.16238576549372e+01dB,-4.90423046189394e+00°)
1.04712854805090e+03	(-1.16251061233016e+01dB,-4.81118345333761e+00°)
1.07151930523760e+03	(-1.16262996828098e+01dB,-4.72064943685607e+00°)
1.09647819614318e+03	(-1.16274408207982e+01dB,-4.63258294242009e+00°)
1.12201845430196e+03	(-1.16285319172895e+01dB,-4.54693964232356e+00°)
1.14815362149688e+03	(-1.16295752497009e+01dB,-4.46367633863611e+00°)
1.17489755493953e+03	(-1.16305729973714e+01dB,-4.38275095054643e+00°)
1.20226443461741e+03	(-1.16315272459000e+01dB,-4.30412250166190e+00°)
1.23026877081238e+03	(-1.16324399913123e+01dB,-4.22775110724504e+00°)
1.25892541179416e+03	(-1.16333131440624e+01dB,-4.15359796148266e+00°)
1.28824955169313e+03	(-1.16341485328696e+01dB,-4.08162532476314e+00°)
1.31825673855640e+03	(-1.16349479084009e+01dB,-4.01179651102989e+00°)
1.34896288259165e+03	(-1.16357129468093e+01dB,-3.94407587522263e+00°)
1.38038426460288e+03	(-1.16364452531227e+01dB,-3.87842880081707e+00°)
1.41253754462275e+03	(-1.16371463645021e+01dB,-3.81482168751360e+00°)
1.44543977074592e+03	(-1.16378177533655e+01dB,-3.75322193906907e+00°)
1.47910838816820e+03	(-1.16384608303889e+01dB,-3.69359795131566e+00°)
1.51356124843620e+03	(-1.16390769473835e+01dB,-3.63591910034535e+00°)
1.54881661891248e+03	(-1.16396674000619e+01dB,-3.58015573094539e+00°)
1.58489319246111e+03	(-1.16402334306932e+01dB,-3.52627914521032e+00°)
1.62181009735892e+03	(-1.16407762306504e+01dB,-3.47426159141936e+00°)
1.65958690743755e+03	(-1.16412969428612e+01dB,-3.42407625315185e+00°)
1.69824365246174e+03	(-1.16417966641623e+01dB,-3.37569723867713e+00°)
1.73780082874937e+03	(-1.16422764475591e+01dB,-3.32909957059186e+00°)
1.77827941003892e+03	(-1.16427373044021e+01dB,-3.28425917576682e+00°)
1.81970085860998e+03	(-1.16431802064796e+01dB,-3.24115287556719e+00°)
1.86208713666286e+03	(-1.16436060880271e+01dB,-3.19975837638312e+00°)
1.90546071796324e+03	(-1.16440158476679e+01dB,-3.16005426045884e+00°)
1.94984459975804e+03	(-1.16444103502802e+01dB,-3.12201997705118e+00°)
1.99526231496887e+03	(-1.16447904287937e+01dB,-3.08563583389447e+00°)
2.04173794466952e+03	(-1.16451568859212e+01dB,-3.05088298901234e+00°)
2.08929613085403e+03	(-1.16455104958384e+01dB,-3.01774344284494e+00°)
2.13796208950222e+03	(-1.16458520057934e+01dB,-2.98620003074047e+00°)
2.18776162394954e+03	(-1.16461821376720e+01dB,-2.95623641576656e+00°)
2.23872113856833e+03	(-1.16465015895066e+01dB,-2.92783708190382e+00°)
2.29086765276776e+03	(-1.16468110369361e+01dB,-2.90098732756305e+00°)
2.34422881531991e+03	(-1.16471111346269e+01dB,-2.87567325949763e+00°)
2.39883291901948e+03	(-1.16474025176417e+01dB,-2.85188178705502e+00°)
2.45470891568502e+03	(-1.16476858027782e+01dB,-2.82960061680812e+00°)
2.51188643150957e+03	(-1.16479615898656e+01dB,-2.80881824757547e+00°)
2.57039578276885e+03	(-1.16482304630271e+01dB,-2.78952396580185e+00°)
2.63026799189537e+03	(-1.16484929919115e+01dB,-2.77170784133013e+00°)
2.69153480392690e+03	(-1.16487497328989e+01dB,-2.75536072357552e+00°)
2.75422870333815e+03	(-1.16490012302722e+01dB,-2.74047423806323e+00°)
2.81838293126444e+03	(-1.16492480173730e+01dB,-2.72704078341268e+00°)
2.88403150312659e+03	(-1.16494906177298e+01dB,-2.71505352866558e+00°)
2.95120922666637e+03	(-1.16497295461709e+01dB,-2.70450641108399e+00°)
3.01995172040200e+03	(-1.16499653099148e+01dB,-2.69539413430771e+00°)
3.09029543251358e+03	(-1.16501984096554e+01dB,-2.68771216698611e+00°)
3.16227766016836e+03	(-1.16504293406240e+01dB,-2.68145674178423e+00°)
3.23593656929627e+03	(-1.16506585936485e+01dB,-2.67662485486180e+00°)
3.31131121482590e+03	(-1.16508866562040e+01dB,-2.67321426576762e+00°)
3.38844156139201e+03	(-1.16511140134560e+01dB,-2.67122349779710e+00°)
3.46736850452530e+03	(-1.16513411493019e+01dB,-2.67065183878710e+00°)
3.54813389233574e+03	(-1.16515685474103e+01dB,-2.67149934237876e+00°)
3.63078054770100e+03	(-1.16517966922658e+01dB,-2.67376682977363e+00°)
3.71535229097171e+03	(-1.16520260702113e+01dB,-2.67745589192012e+00°)
3.80189396320559e+03	(-1.16522571705039e+01dB,-2.68256889224848e+00°)
3.89045144994279e+03	(-1.16524904863721e+01dB,-2.68910896984665e+00°)
3.98107170553495e+03	(-1.16527265160925e+01dB,-2.69708004320595e+00°)
4.07380277804111e+03	(-1.16529657640701e+01dB,-2.70648681443234e+00°)
4.16869383470333e+03	(-1.16532087419459e+01dB,-2.71733477405146e+00°)
4.26579518801591e+03	(-1.16534559697140e+01dB,-2.72963020630435e+00°)
4.36515832240164e+03	(-1.16537079768649e+01dB,-2.74338019505594e+00°)
4.46683592150961e+03	(-1.16539653035531e+01dB,-2.75859263024610e+00°)
4.57088189614873e+03	(-1.16542285017892e+01dB,-2.77527621496872e+00°)
4.67735141287196e+03	(-1.16544981366651e+01dB,-2.79344047313808e+00°)
4.78630092322636e+03	(-1.16547747876108e+01dB,-2.81309575779942e+00°)
4.89778819368444e+03	(-1.16550590496880e+01dB,-2.83425326008846e+00°)
5.01187233627270e+03	(-1.16553515349210e+01dB,-2.85692501888427e+00°)
5.12861383991362e+03	(-1.16556528736749e+01dB,-2.88112393111187e+00°)
5.24807460249770e+03	(-1.16559637160773e+01dB,-2.90686376282907e+00°)
5.37031796370250e+03	(-1.16562847334912e+01dB,-2.93415916100887e+00°)
5.49540873857622e+03	(-1.16566166200430e+01dB,-2.96302566613974e+00°)
5.62341325190346e+03	(-1.16569600942056e+01dB,-2.99347972560370e+00°)
5.75439937337154e+03	(-1.16573159004526e+01dB,-3.02553870790915e+00°)
5.88843655355586e+03	(-1.16576848109670e+01dB,-3.05922091779514e+00°)
6.02559586074354e+03	(-1.16580676274361e+01dB,-3.09454561224288e+00°)
6.16595001861479e+03	(-1.16584651829121e+01dB,-3.13153301744677e+00°)
6.30957344480190e+03	(-1.16588783437650e+01dB,-3.17020434677295e+00°)
6.45654229034652e+03	(-1.16593080117157e+01dB,-3.21058181975037e+00°)
6.60693448007592e+03	(-1.16597551259685e+01dB,-3.25268868216648e+00°)
6.76082975391978e+03	(-1.16602206654444e+01dB,-3.29654922727778e+00°)
6.91830970918932e+03	(-1.16607056511204e+01dB,-3.34218881824452e+00°)
7.07945784384134e+03	(-1.16612111484876e+01dB,-3.38963391178431e+00°)
7.24435960074986e+03	(-1.16617382701238e+01dB,-3.43891208317306e+00°)
7.41310241300913e+03	(-1.16622881784090e+01dB,-3.49005205261021e+00°)
7.58577575029179e+03	(-1.16628620883724e+01dB,-3.54308371305885e+00°)
7.76247116628687e+03	(-1.16634612706918e+01dB,-3.59803815960486e+00°)
7.94328234724277e+03	(-1.16640870548518e+01dB,-3.65494772044137e+00°)
8.12830516164094e+03	(-1.16647408324746e+01dB,-3.71384598958127e+00°)
8.31763771102666e+03	(-1.16654240608309e+01dB,-3.77476786133297e+00°)
8.51138038202371e+03	(-1.16661382665451e+01dB,-3.83774956672933e+00°)
8.70963589956075e+03	(-1.16668850495107e+01dB,-3.90282871193052e+00°)
8.91250938133740e+03	(-1.16676660870263e+01dB,-3.97004431881648e+00°)
9.12010839355904e+03	(-1.16684831381681e+01dB,-4.03943686777367e+00°)
9.33254300796985e+03	(-1.16693380484247e+01dB,-4.11104834295121e+00°)
9.54992586021430e+03	(-1.16702327545900e+01dB,-4.18492228000734e+00°)
9.77237220955804e+03	(-1.16711692899659e+01dB,-4.26110381658341e+00°)
9.99999999999993e+03	(-1.16721497898615e+01dB,-4.33963974564156e+00°)
1.02329299228075e+04	(-1.16731764974398e+01dB,-4.42057857186638e+00°)
1.04712854805089e+04	(-1.16742517699206e+01dB,-4.50397057127311e+00°)
1.07151930523760e+04	(-1.16753780851662e+01dB,-4.58986785432734e+00°)
1.09647819614318e+04	(-1.16765580486898e+01dB,-4.67832443268516e+00°)
1.12201845430196e+04	(-1.16777944011040e+01dB,-4.76939628989183e+00°)
1.14815362149688e+04	(-1.16790900260555e+01dB,-4.86314145625273e+00°)
1.17489755493952e+04	(-1.16804479586743e+01dB,-4.95962008814816e+00°)
1.20226443461740e+04	(-1.16818713945762e+01dB,-5.05889455212385e+00°)
1.23026877081237e+04	(-1.16833636994801e+01dB,-5.16102951406704e+00°)
1.25892541179416e+04	(-1.16849284194516e+01dB,-5.26609203381988e+00°)
1.28824955169313e+04	(-1.16865692918726e+01dB,-5.37415166557029e+00°)
1.31825673855640e+04	(-1.16882902571431e+01dB,-5.48528056452168e+00°)
1.34896288259164e+04	(-1.16900954712204e+01dB,-5.59955360016197e+00°)
1.38038426460288e+04	(-1.16919893190296e+01dB,-5.71704847670376e+00°)
1.41253754462274e+04	(-1.16939764288477e+01dB,-5.83784586111646e+00°)
1.44543977074592e+04	(-1.16960616877110e+01dB,-5.96202951941491e+00°)
1.47910838816820e+04	(-1.16982502579672e+01dB,-6.08968646166440e+00°)
1.51356124843620e+04	(-1.17005475950427e+01dB,-6.22090709647027e+00°)
1.54881661891247e+04	(-1.17029594665499e+01dB,-6.35578539556111e+00°)
1.58489319246110e+04	(-1.17054919728318e+01dB,-6.49441906927442e+00°)
1.62181009735892e+04	(-1.17081515691037e+01dB,-6.63690975372301e+00°)
1.65958690743755e+04	(-1.17109450892996e+01dB,-6.78336321054481e+00°)
1.69824365246173e+04	(-1.17138797718031e+01dB,-6.93388954019622e+00°)
1.73780082874936e+04	(-1.17169632872288e+01dB,-7.08860340980133e+00°)
1.77827941003891e+04	(-1.17202037684408e+01dB,-7.24762429671101e+00°)
1.81970085860997e+04	(-1.17236098430279e+01dB,-7.41107674896813e+00°)
1.86208713666285e+04	(-1.17271906684571e+01dB,-7.57909066402248e+00°)
1.90546071796323e+04	(-1.17309559701827e+01dB,-7.75180158710533e+00°)
1.94984459975803e+04	(-1.17349160829750e+01dB,-7.92935103086165e+00°)
1.99526231496887e+04	(-1.17390819958040e+01dB,-8.11188681788815e+00°)
2.04173794466951e+04	(-1.17434654006289e+01dB,-8.29956344807859e+00°)
2.08929613085402e+04	(-1.17480787454811e+01dB,-8.49254249272188e+00°)
2.13796208950222e+04	(-1.17529352922880e+01dB,-8.69099301760415e+00°)
2.18776162394954e+04	(-1.17580491799182e+01dB,-8.89509203742021e+00°)
2.23872113856832e+04	(-1.17634354930071e+01dB,-9.10502500413282e+00°)
2.29086765276776e+04	(-1.17691103371582e+01dB,-9.32098633209388e+00°)
2.34422881531990e+04	(-1.17750909212189e+01dB,-9.54317996297916e+00°)
2.39883291901947e+04	(-1.17813956473855e+01dB,-9.77181997391365e+00°)
2.45470891568501e+04	(-1.17880442100043e+01dB,-1.00071312324414e+01°)
2.51188643150956e+04	(-1.17950577040321e+01dB,-1.02493501023000e+01°)
2.57039578276884e+04	(-1.18024587442401e+01dB,-1.04987252043985e+01°)
2.63026799189536e+04	(-1.18102715963972e+01dB,-1.07555182377204e+01°)
2.69153480392689e+04	(-1.18185223217859e+01dB,-1.10200048653342e+01°)
2.75422870333814e+04	(-1.18272389366459e+01dB,-1.12924756711946e+01°)
2.81838293126443e+04	(-1.18364515882817e+01dB,-1.15732371938968e+01°)
2.88403150312658e+04	(-1.18461927498384e+01dB,-1.18626130441229e+01°)
2.95120922666636e+04	(-1.18564974360223e+01dB,-1.21609451131607e+01°)
3.01995172040199e+04	(-1.18674034423219e+01dB,-1.24685948804943e+01°)
3.09029543251357e+04	(-1.18789516106749e+01dB,-1.27859448292205e+01°)
3.16227766016835e+04	(-1.18911861249139e+01dB,-1.31133999788258e+01°)
3.23593656929626e+04	(-1.19041548397910e+01dB,-1.34513895456728e+01°)
3.31131121482588e+04	(-1.19179096479531e+01dB,-1.38003687424705e+01°)
3.38844156139200e+04	(-1.19325068898442e+01dB,-1.41608207289425e+01°)
3.46736850452529e+04	(-1.19480078122537e+01dB,-1.45332587269163e+01°)
3.54813389233573e+04	(-1.19644790820976e+01dB,-1.49182283141353e+01°)
3.63078054770098e+04	(-1.19819933629836e+01dB,-1.53163099121637e+01°)
3.71535229097169e+04	(-1.20006299632927e+01dB,-1.57281214848915e+01°)
3.80189396320558e+04	(-1.20204755658563e+01dB,-1.61543214652448e+01°)
3.89045144994277e+04	(-1.20416250508890e+01dB,-1.65956119287775e+01°)
3.98107170553494e+04	(-1.20641824257077e+01dB,-1.70527420338170e+01°)
4.07380277804109e+04	(-1.20882618769401e+01dB,-1.75265117486584e+01°)
4.16869383470332e+04	(-1.21139889635254e+01dB,-1.80177758868801e+01°)
4.26579518801589e+04	(-1.21415019718281e+01dB,-1.85274484721079e+01°)
4.36515832240162e+04	(-1.21709534577999e+01dB,-1.90565074532420e+01°)
4.46683592150959e+04	(-1.22025120053982e+01dB,-1.96059997901524e+01°)
4.57088189614871e+04	(-1.22363642355159e+01dB,-2.01770469278213e+01°)
4.67735141287194e+04	(-1.22727171057536e+01dB,-2.07708506735353e+01°)
4.78630092322634e+04	(-1.23118005485446e+01dB,-2.13886994865073e+01°)
4.89778819368442e+04	(-1.23538705037972e+01dB,-2.20319751816343e+01°)
5.01187233627268e+04	(-1.23992124125623e+01dB,-2.27021600382078e+01°)
5.12861383991360e+04	(-1.24481452507202e+01dB,-2.34008442892030e+01°)
5.24807460249768e+04	(-1.25010261967140e+01dB,-2.41297339459895e+01°)
5.37031796370248e+04	(-1.25582560455826e+01dB,-2.48906588852227e+01°)
5.49540873857620e+04	(-1.26202855037186e+01dB,-2.56855810870451e+01°)
5.62341325190344e+04	(-1.26876225257850e+01dB,-2.65166028637736e+01°)
5.75439937337152e+04	(-1.27608408883920e+01dB,-2.73859748523219e+01°)
5.88843655355584e+04	(-1.28405902359559e+01dB,-2.82961034571493e+01°)
6.02559586074352e+04	(-1.29276078848214e+01dB,-2.92495573175908e+01°)
6.16595001861477e+04	(-1.30227327349261e+01dB,-3.02490722266843e+01°)
6.30957344480187e+04	(-1.31269217179075e+01dB,-3.12975537385010e+01°)
6.45654229034650e+04	(-1.32412693117046e+01dB,-3.23980764556551e+01°)
6.60693448007590e+04	(-1.33670307817948e+01dB,-3.35538786727905e+01°)
6.76082975391975e+04	(-1.35056499787242e+01dB,-3.47683506459688e+01°)
6.91830970918930e+04	(-1.36587927458353e+01dB,-3.60450142366160e+01°)
